# HZ S RI R 50
8.00000000000e+008 -7.03427188911e-001 -3.13065849201e-001 -8.46797389605e-001 +2.60811583266e+001 +2.64212894626e-002 +5.93472831528e-003 +5.33138346834e-001 -4.75615897530e-001
8.04400000000e+008 -7.06435440531e-001 -3.05230612853e-001 -6.84778574040e-001 +2.60277063476e+001 +2.65289412299e-002 +5.80902541063e-003 +5.31034779089e-001 -4.76041944725e-001
8.08800000000e+008 -7.09348354026e-001 -2.97370350753e-001 -5.23487283268e-001 +2.59735464299e+001 +2.66363172253e-002 +5.68243568651e-003 +5.28936930714e-001 -4.76465393110e-001
8.13200000000e+008 -7.12165830191e-001 -2.89486040316e-001 -3.62920392105e-001 +2.59186843025e+001 +2.67434155411e-002 +5.55495399606e-003 +5.26844726863e-001 -4.76886321810e-001
8.17600000000e+008 -7.14887775135e-001 -2.81578656343e-001 -2.03074778626e-001 +2.58631255387e+001 +2.68502341559e-002 +5.42657509222e-003 +5.24758091845e-001 -4.77304809039e-001
8.22000000000e+008 -7.17514100185e-001 -2.73649171131e-001 -4.39473268734e-002 +2.58068755571e+001 +2.69567709330e-002 +5.29729362901e-003 +5.22676949113e-001 -4.77720932099e-001
8.26400000000e+008 -7.20044721795e-001 -2.65698554578e-001 +1.14465070480e-001 +2.57499396233e+001 +2.70630236175e-002 +5.16710416270e-003 +5.20601221264e-001 -4.78134767378e-001
8.30800000000e+008 -7.22479561467e-001 -2.57727774286e-001 +2.72165509501e-001 +2.56923228511e+001 +2.71689898340e-002 +5.03600115309e-003 +5.18530830034e-001 -4.78546390338e-001
8.35200000000e+008 -7.24818545665e-001 -2.49737795678e-001 +4.29157072403e-001 +2.56340302040e+001 +2.72746670838e-002 +4.90397896477e-003 +5.16465696290e-001 -4.78955875516e-001
8.39600000000e+008 -7.27061605744e-001 -2.41729582102e-001 +5.85442824989e-001 +2.55750664968e+001 +2.73800527428e-002 +4.77103186845e-003 +5.14405740030e-001 -4.79363296515e-001
8.44000000000e+008 -7.29208677880e-001 -2.33704094947e-001 +7.41025814121e-001 +2.55154363970e+001 +2.74851440587e-002 +4.63715404228e-003 +5.12350880375e-001 -4.79768725995e-001
8.48400000000e+008 -7.31259703001e-001 -2.25662293756e-001 +8.95909065238e-001 +2.54551444261e+001 +2.75899381488e-002 +4.50233957324e-003 +5.10301035566e-001 -4.80172235672e-001
8.52800000000e+008 -7.33214626728e-001 -2.17605136338e-001 +1.05009557989e+000 +2.53941949614e+001 +2.76944319971e-002 +4.36658245850e-003 +5.08256122956e-001 -4.80573896305e-001
8.57200000000e+008 -7.35073399318e-001 -2.09533578885e-001 +1.20358833332e+000 +2.53325922373e+001 +2.77986224520e-002 +4.22987660692e-003 +5.06216059008e-001 -4.80973777691e-001
8.61600000000e+008 -7.36835975610e-001 -2.01448576090e-001 +1.35639027205e+000 +2.52703403470e+001 +2.79025062237e-002 +4.09221584044e-003 +5.04180759288e-001 -4.81371948654e-001
8.66000000000e+008 -7.38502314984e-001 -1.93351081258e-001 +1.50850431155e+000 +2.52074432439e+001 +2.80060798817e-002 +3.95359389565e-003 +5.02150138461e-001 -4.81768477039e-001
8.70400000000e+008 -7.40072381310e-001 -1.85242046433e-001 +1.65993333387e+000 +2.51439047431e+001 +2.81093398522e-002 +3.81400442528e-003 +5.00124110284e-001 -4.82163429699e-001
8.74800000000e+008 -7.41546142915e-001 -1.77122422508e-001 +1.81068018534e+000 +2.50797285234e+001 +2.82122824155e-002 +3.67344099979e-003 +4.98102587604e-001 -4.82556872485e-001
8.79200000000e+008 -7.42923572550e-001 -1.68993159350e-001 +1.96074767431e+000 +2.50149181282e+001 +2.83149037038e-002 +3.53189710898e-003 +4.96085482349e-001 -4.82948870240e-001
8.83600000000e+008 -7.44204647358e-001 -1.60855205917e-001 +2.11013856890e+000 +2.49494769679e+001 +2.84171996978e-002 +3.38936616363e-003 +4.94072705524e-001 -4.83339486782e-001
8.88000000000e+008 -7.45389348853e-001 -1.52709510380e-001 +2.25885559473e+000 +2.48834083208e+001 +2.85191662251e-002 +3.24584149717e-003 +4.92064167209e-001 -4.83728784893e-001
8.92400000000e+008 -7.46477662898e-001 -1.44557020240e-001 +2.40690143280e+000 +2.48167153350e+001 +2.86207989569e-002 +3.10131636746e-003 +4.90059776547e-001 -4.84116826311e-001
8.96800000000e+008 -7.47469579694e-001 -1.36398682454e-001 +2.55427871724e+000 +2.47494010302e+001 +2.87220934056e-002 +2.95578395849e-003 +4.88059441747e-001 -4.84503671713e-001
9.01200000000e+008 -7.48376657363e-001 -1.28324380056e-001 +2.69961997252e+000 +2.46813640125e+001 +2.88205240245e-002 +2.80874626018e-003 +4.86121627753e-001 -4.84891508499e-001
9.05600000000e+008 -7.49223014517e-001 -1.20482660734e-001 +2.84064443112e+000 +2.46124610630e+001 +2.89118478405e-002 +2.65944662609e-003 +4.84342970230e-001 -4.85284959317e-001
9.10000000000e+008 -7.49980580087e-001 -1.12636863922e-001 +2.98100800109e+000 +2.45429890306e+001 +2.90027616968e-002 +2.50922806865e-003 +4.82566721801e-001 -4.85678971842e-001
9.14400000000e+008 -7.50649350748e-001 -1.04787823494e-001 +3.12071292754e+000 +2.44729507241e+001 +2.90932609650e-002 +2.35808487671e-003 +4.80792782374e-001 -4.86073579634e-001
9.18800000000e+008 -7.51229326769e-001 -9.69363732283e-002 +3.25976141032e+000 +2.44023488473e+001 +2.91833408702e-002 +2.20601128846e-003 +4.79021051246e-001 -4.86468815101e-001
9.23200000000e+008 -7.51720512015e-001 -8.90833469108e-002 +3.39815560237e+000 +2.43311860004e+001 +2.92729964896e-002 +2.05300149313e-003 +4.77251427105e-001 -4.86864709488e-001
9.27600000000e+008 -7.52122913952e-001 -8.12295784310e-002 +3.53589760801e+000 +2.42594646815e+001 +2.93622227497e-002 +1.89904963286e-003 +4.75483808032e-001 -4.87261292870e-001
9.32000000000e+008 -7.52436543661e-001 -7.33759018835e-002 +3.67298948134e+000 +2.41871872882e+001 +2.94510144248e-002 +1.74414980449e-003 +4.73718091492e-001 -4.87658594132e-001
9.36400000000e+008 -7.52661415847e-001 -6.55231516664e-002 +3.80943322457e+000 +2.41143561189e+001 +2.95393661345e-002 +1.58829606145e-003 +4.71954174343e-001 -4.88056640962e-001
9.40800000000e+008 -7.52797548860e-001 -5.76721625807e-002 +3.94523078642e+000 +2.40409733745e+001 +2.96272723417e-002 +1.43148241565e-003 +4.70191952827e-001 -4.88455459839e-001
9.45200000000e+008 -7.52844964713e-001 -4.98237699287e-002 +4.08038406056e+000 +2.39670411597e+001 +2.97147273508e-002 +1.27370283950e-003 +4.68431322577e-001 -4.88855076013e-001
9.49600000000e+008 -7.52803689110e-001 -4.19788096120e-002 +4.21489488395e+000 +2.38925614846e+001 +2.98017253050e-002 +1.11495126783e-003 +4.66672178610e-001 -4.89255513499e-001
9.54000000000e+008 -7.52673751474e-001 -3.41381182295e-002 +4.34876503539e+000 +2.38175362663e+001 +2.98882601849e-002 +9.55221599975e-004 +4.64914415331e-001 -4.89656795057e-001
9.58400000000e+008 -7.52455184975e-001 -2.63025331748e-002 +4.48199623389e+000 +2.37419673304e+001 +2.99743258058e-002 +7.94507701847e-004 +4.63157926535e-001 -4.90058942181e-001
9.62800000000e+008 -7.52148026570e-001 -1.84728927322e-002 +4.61459013721e+000 +2.36658564125e+001 +3.00599158159e-002 +6.32803408069e-004 +4.61402605402e-001 -4.90461975080e-001
9.67200000000e+008 -7.51752317042e-001 -1.06500361734e-002 +4.74654834030e+000 +2.35892051598e+001 +3.01450236942e-002 +4.70102524146e-004 +4.59648344502e-001 -4.90865912666e-001
9.71600000000e+008 -7.51268101040e-001 -2.83480385217e-003 +4.87787237385e+000 +2.35120151328e+001 +3.02296427483e-002 +3.06398828686e-004 +4.57895035796e-001 -4.91270772538e-001
9.76000000000e+008 -7.50695427129e-001 +4.97196270067e-003 +5.00856370279e+000 +2.34342878065e+001 +3.03137661122e-002 +1.41686075673e-004 +4.56142570635e-001 -4.91676570960e-001
9.80400000000e+008 -7.50034347839e-001 +1.27694206840e-002 +5.13862372486e+000 +2.33560245726e+001 +3.03973867444e-002 -2.40420032172e-005 +4.54390839764e-001 -4.92083322853e-001
9.84800000000e+008 -7.49284919718e-001 +2.05567259336e-002 +5.26805376912e+000 +2.32772267407e+001 +3.04804974258e-002 -1.90791696244e-004 +4.52639733323e-001 -4.92491041771e-001
9.89200000000e+008 -7.48447203393e-001 +2.83330328304e-002 +5.39685509458e+000 +2.31978955399e+001 +3.05630907573e-002 -3.58569309184e-004 +4.50889140847e-001 -4.92899739885e-001
9.93600000000e+008 -7.47521263625e-001 +3.60974942099e-002 +5.52502888873e+000 +2.31180321206e+001 +3.06451591580e-002 -5.27381162859e-004 +4.49138951274e-001 -4.93309427964e-001
9.98000000000e+008 -7.46507169383e-001 +4.38492612725e-002 +5.65257626620e+000 +2.30376375563e+001 +3.07266948630e-002 -6.97233590607e-004 +4.47389052943e-001 -4.93720115361e-001
1.00240000000e+009 -7.45401990145e-001 +5.14855394437e-002 +5.77760306798e+000 +2.29600667202e+001 +3.08030417334e-002 -8.61960241190e-004 +4.45669593732e-001 -4.94081550981e-001
1.00680000000e+009 -7.44209540177e-001 +5.90222382622e-002 +5.90049162732e+000 +2.28847868902e+001 +3.08750385079e-002 -1.02247554936e-003 +4.43975945337e-001 -4.94401816991e-001
1.01120000000e+009 -7.42933366999e-001 +6.65434394913e-002 +6.02284148794e+000 +2.28090110596e+001 +3.09465728911e-002 -1.18389398568e-003 +4.42282950924e-001 -4.94722717861e-001
1.01560000000e+009 -7.41573569307e-001 +7.40483460977e-002 +6.14465353368e+000 +2.27327395265e+001 +3.10176379351e-002 -1.34622155733e-003 +4.40590517833e-001 -4.95044263859e-001
1.02000000000e+009 -7.40130250030e-001 +8.15361593925e-002 +6.26592857588e+000 +2.26559725252e+001 +3.10882265248e-002 -1.50946427160e-003 +4.38898552839e-001 -4.95366464148e-001
1.02440000000e+009 -7.38603516407e-001 +8.90060789619e-002 +6.38666735218e+000 +2.25787102273e+001 +3.11583313765e-002 -1.67362813348e-003 +4.37206962149e-001 -4.95689326769e-001
1.02880000000e+009 -7.36993480065e-001 +9.64573025998e-002 +6.50687052537e+000 +2.25009527434e+001 +3.12279450363e-002 -1.83871914331e-003 +4.35515651402e-001 -4.96012858622e-001
1.03320000000e+009 -7.35300257107e-001 +1.03889026241e-001 +6.62653868225e+000 +2.24227001244e+001 +3.12970598785e-002 -2.00474329437e-003 +4.33824525675e-001 -4.96337065447e-001
1.03760000000e+009 -7.33523968196e-001 +1.11300443898e-001 +6.74567233249e+000 +2.23439523631e+001 +3.13656681038e-002 -2.17170657035e-003 +4.32133489484e-001 -4.96661951806e-001
1.04200000000e+009 -7.31664738649e-001 +1.18690747596e-001 +6.86427190751e+000 +2.22647093958e+001 +3.14337617380e-002 -2.33961494287e-003 +4.30442446783e-001 -4.96987521062e-001
1.04640000000e+009 -7.29722698522e-001 +1.26059127315e-001 +6.98233775935e+000 +2.21849711038e+001 +3.15013326303e-002 -2.50847436887e-003 +4.28751300972e-001 -4.97313775364e-001
1.05080000000e+009 -7.27697982715e-001 +1.33404770926e-001 +7.09987015961e+000 +2.21047373148e+001 +3.15683724517e-002 -2.67829078800e-003 +4.27059954896e-001 -4.97640715620e-001
1.05520000000e+009 -7.25590731066e-001 +1.40726864142e-001 +7.21686929831e+000 +2.20240078049e+001 +3.16348726935e-002 -2.84907011990e-003 +4.25368310851e-001 -4.97968341484e-001
1.05960000000e+009 -7.23401088456e-001 +1.48024590452e-001 +7.33333528284e+000 +2.19427822997e+001 +3.17008246658e-002 -3.02081826149e-003 +4.23676270590e-001 -4.98296651331e-001
1.06400000000e+009 -7.21129204912e-001 +1.55297131080e-001 +7.44926813689e+000 +2.18610604763e+001 +3.17662194958e-002 -3.19354108417e-003 +4.21983735322e-001 -4.98625642238e-001
1.06840000000e+009 -7.18775235718e-001 +1.62543664925e-001 +7.56466779939e+000 +2.17788419646e+001 +3.18310481265e-002 -3.36724443098e-003 +4.20290605724e-001 -4.98955309959e-001
1.07280000000e+009 -7.16339341522e-001 +1.69763368517e-001 +7.67953412346e+000 +2.16961263493e+001 +3.18953013150e-002 -3.54193411366e-003 +4.18596781941e-001 -4.99285648911e-001
1.07720000000e+009 -7.13821688459e-001 +1.76955415970e-001 +7.79386687542e+000 +2.16129131712e+001 +3.19589696312e-002 -3.71761590972e-003 +4.16902163596e-001 -4.99616652144e-001
1.08160000000e+009 -7.11222448258e-001 +1.84118978938e-001 +7.90766573369e+000 +2.15292019293e+001 +3.20220434564e-002 -3.89429555943e-003 +4.15206649793e-001 -4.99948311325e-001
1.08600000000e+009 -7.08541798369e-001 +1.91253226574e-001 +8.02093028787e+000 +2.14449920820e+001 +3.20845129815e-002 -4.07197876269e-003 +4.13510139130e-001 -5.00280616710e-001
1.09040000000e+009 -7.05779922087e-001 +1.98357325492e-001 +8.13366003769e+000 +2.13602830494e+001 +3.21463682060e-002 -4.25067117594e-003 +4.11812529699e-001 -5.00613557127e-001
1.09480000000e+009 -7.02937008675e-001 +2.05430439731e-001 +8.24585439205e+000 +2.12750742145e+001 +3.22075989365e-002 -4.43037840894e-003 +4.10113719102e-001 -5.00947119948e-001
1.09920000000e+009 -7.00013253493e-001 +2.12471730722e-001 +8.35751266807e+000 +2.11893649253e+001 +3.22681947849e-002 -4.61110602150e-003 +4.08413604452e-001 -5.01281291071e-001
1.10360000000e+009 -6.97185492031e-001 +2.19265762601e-001 +8.46616906220e+000 +2.11041117300e+001 +3.23145744243e-002 -4.78078269245e-003 +4.06815987817e-001 -5.01678043897e-001
1.10800000000e+009 -6.94322287531e-001 +2.25982621309e-001 +8.57374153239e+000 +2.10186005546e+001 +3.23573849709e-002 -4.94856790547e-003 +4.05239057576e-001 -5.02088951795e-001
1.11240000000e+009 -6.91385133363e-001 +2.32669651724e-001 +8.68077728055e+000 +2.09326215677e+001 +3.23996441824e-002 -5.11712612934e-003 +4.03659552733e-001 -5.02500190550e-001
1.11680000000e+009 -6.88374203730e-001 +2.39326112923e-001 +8.78727550270e+000 +2.08461745480e+001 +3.24413438308e-002 -5.28646190301e-003 +4.02077392917e-001 -5.02911729040e-001
1.12120000000e+009 -6.85289678223e-001 +2.45951261615e-001 +8.89323531685e+000 +2.07592592494e+001 +3.24824755359e-002 -5.45657971670e-003 +4.00492497600e-001 -5.03323535006e-001
1.12560000000e+009 -6.82131741936e-001 +2.52544352123e-001 +8.99865576236e+000 +2.06718754031e+001 +3.25230307644e-002 -5.62748400932e-003 +3.98904786105e-001 -5.03735575035e-001
1.13000000000e+009 -6.78900585578e-001 +2.59104636363e-001 +9.10353579923e+000 +2.05840227183e+001 +3.25630008293e-002 -5.79917916594e-003 +3.97314177615e-001 -5.04147814542e-001
1.13440000000e+009 -6.75596405593e-001 +2.65631363833e-001 +9.20787430736e+000 +2.04957008845e+001 +3.26023768890e-002 -5.97166951519e-003 +3.95720591183e-001 -5.04560217756e-001
1.13880000000e+009 -6.72219404275e-001 +2.72123781597e-001 +9.31167008595e+000 +2.04069095728e+001 +3.26411499466e-002 -6.14495932662e-003 +3.94123945741e-001 -5.04972747703e-001
1.14320000000e+009 -6.68769789893e-001 +2.78581134273e-001 +9.41492185279e+000 +2.03176484376e+001 +3.26793108493e-002 -6.31905280797e-003 +3.92524160107e-001 -5.05385366186e-001
1.14760000000e+009 -6.65247776816e-001 +2.85002664032e-001 +9.51762824363e+000 +2.02279171178e+001 +3.27168502874e-002 -6.49395410248e-003 +3.90921153000e-001 -5.05798033773e-001
1.15200000000e+009 -6.61653585631e-001 +2.91387610586e-001 +9.61978781157e+000 +2.01377152391e+001 +3.27537587942e-002 -6.66966728607e-003 +3.89314843051e-001 -5.06210709773e-001
1.15640000000e+009 -6.57987443278e-001 +2.97735211192e-001 +9.72139902640e+000 +2.00470424151e+001 +3.27900267448e-002 -6.84619636455e-003 +3.87705148809e-001 -5.06623352227e-001
1.16080000000e+009 -6.54249583177e-001 +3.04044700647e-001 +9.82246027405e+000 +1.99558982492e+001 +3.28256443559e-002 -7.02354527071e-003 +3.86091988760e-001 -5.07035917885e-001
1.16520000000e+009 -6.50440245359e-001 +3.10315311297e-001 +9.92296985602e+000 +1.98642823363e+001 +3.28606016850e-002 -7.20171786144e-003 +3.84475281334e-001 -5.07448362189e-001
1.16960000000e+009 -6.46559676601e-001 +3.16546273039e-001 +1.00229259887e+001 +1.97721942645e+001 +3.28948886300e-002 -7.38071791471e-003 +3.82854944922e-001 -5.07860639259e-001
1.17400000000e+009 -6.42608130560e-001 +3.22736813335e-001 +1.01223268031e+001 +1.96796336167e+001 +3.29284949287e-002 -7.56054912662e-003 +3.81230897887e-001 -5.08272701872e-001
1.17840000000e+009 -6.38585867912e-001 +3.28886157223e-001 +1.02211703439e+001 +1.95865999725e+001 +3.29614101582e-002 -7.74121510829e-003 +3.79603058581e-001 -5.08684501445e-001
1.18280000000e+009 -6.34493156492e-001 +3.34993527332e-001 +1.03194545693e+001 +1.94930929100e+001 +3.29936237347e-002 -7.92271938277e-003 +3.77971345357e-001 -5.09095988020e-001
1.18720000000e+009 -6.30330271431e-001 +3.41058143904e-001 +1.04171773504e+001 +1.93991120072e+001 +3.30251249129e-002 -8.10506538189e-003 +3.76335676585e-001 -5.09507110242e-001
1.19160000000e+009 -6.26097495306e-001 +3.47079224817e-001 +1.05143364708e+001 +1.93046568443e+001 +3.30559027858e-002 -8.28825644306e-003 +3.74695970670e-001 -5.09917815348e-001
1.19600000000e+009 -6.21795118278e-001 +3.53055985608e-001 +1.06109296260e+001 +1.92097270055e+001 +3.30859462844e-002 -8.47229580600e-003 +3.73052146065e-001 -5.10328049140e-001
1.20040000000e+009 -6.17431376364e-001 +3.58977296917e-001 +1.07067931213e+001 +1.91149407657e+001 +3.31147876334e-002 -8.65709274488e-003 +3.71413618329e-001 -5.10733989670e-001
1.20480000000e+009 -6.13079508969e-001 +3.64750200395e-001 +1.08005208771e+001 +1.90258778253e+001 +3.31383034800e-002 -8.84176891536e-003 +3.69865987663e-001 -5.11102029841e-001
1.20920000000e+009 -6.08661680846e-001 +3.70478125753e-001 +1.08937636916e+001 +1.89363605107e+001 +3.31610456372e-002 -9.02723501617e-003 +3.68314377645e-001 -5.11470068727e-001
1.21360000000e+009 -6.04178199207e-001 +3.76160327699e-001 +1.09865192727e+001 +1.88463879030e+001 +3.31830030910e-002 -9.21349332616e-003 +3.66758709474e-001 -5.11838054388e-001
1.21800000000e+009 -5.99629378919e-001 +3.81796059036e-001 +1.10787852440e+001 +1.87559590898e+001 +3.32041646802e-002 -9.40054601358e-003 +3.65198904398e-001 -5.12205933528e-001
1.22240000000e+009 -5.95015542650e-001 +3.87384570710e-001 +1.11705591445e+001 +1.86650731667e+001 +3.32245190969e-002 -9.58839513290e-003 +3.63634883733e-001 -5.12573651475e-001
1.22680000000e+009 -5.90337021003e-001 +3.92925111855e-001 +1.12618384279e+001 +1.85737292392e+001 +3.32440548862e-002 -9.77704262155e-003 +3.62066568877e-001 -5.12941152170e-001
1.23120000000e+009 -5.85594152657e-001 +3.98416929845e-001 +1.13526204628e+001 +1.84819264245e+001 +3.32627604467e-002 -9.96649029666e-003 +3.60493881332e-001 -5.13308378142e-001
1.23560000000e+009 -5.80787284514e-001 +4.03859270352e-001 +1.14429025319e+001 +1.83896638526e+001 +3.32806240306e-002 -1.01567398517e-002 +3.58916742722e-001 -5.13675270501e-001
1.24000000000e+009 -5.75916771833e-001 +4.09251377400e-001 +1.15326818318e+001 +1.82969406689e+001 +3.32976337441e-002 -1.03477928533e-002 +3.57335074807e-001 -5.14041768915e-001
1.24440000000e+009 -5.70982978381e-001 +4.14592493434e-001 +1.16219554729e+001 +1.82037560355e+001 +3.33137775480e-002 -1.05396507375e-002 +3.55748799509e-001 -5.14407811596e-001
1.24880000000e+009 -5.65986276573e-001 +4.19881859381e-001 +1.17107204791e+001 +1.81101091330e+001 +3.33290432577e-002 -1.07323148066e-002 +3.54157838927e-001 -5.14773335287e-001
1.25320000000e+009 -5.60927047617e-001 +4.25118714724e-001 +1.17989737873e+001 +1.80159991624e+001 +3.33434185438e-002 -1.09257862259e-002 +3.52562115362e-001 -5.15138275241e-001
1.25760000000e+009 -5.55805681665e-001 +4.30302297576e-001 +1.18867122474e+001 +1.79214253471e+001 +3.33568909331e-002 -1.11200660195e-002 +3.50961551336e-001 -5.15502565208e-001
1.26200000000e+009 -5.50622577954e-001 +4.35431844758e-001 +1.19739326221e+001 +1.78263869345e+001 +3.33694478086e-002 -1.13151550674e-002 +3.49356069614e-001 -5.15866137421e-001
1.26640000000e+009 -5.45378144954e-001 +4.40506591884e-001 +1.20606315867e+001 +1.77308831978e+001 +3.33810764104e-002 -1.15110541018e-002 +3.47745593226e-001 -5.16228922576e-001
1.27080000000e+009 -5.40072800521e-001 +4.45525773447e-001 +1.21468057290e+001 +1.76349134383e+001 +3.33917638367e-002 -1.17077637030e-002 +3.46130045493e-001 -5.16590849823e-001
1.27520000000e+009 -5.34706972038e-001 +4.50488622910e-001 +1.22324515491e+001 +1.75384769870e+001 +3.34014970442e-002 -1.19052842965e-002 +3.44509350050e-001 -5.16951846744e-001
1.27960000000e+009 -5.29281096568e-001 +4.55394372805e-001 +1.23175654595e+001 +1.74415732066e+001 +3.34102628492e-002 -1.21036161489e-002 +3.42883430867e-001 -5.17311839345e-001
1.28400000000e+009 -5.23795621001e-001 +4.60242254829e-001 +1.24021437848e+001 +1.73442014936e+001 +3.34180479288e-002 -1.23027593639e-002 +3.41252212279e-001 -5.17670752037e-001
