#  HZ   S   RI   R     50.00 
! Rohde & Schwarz Vector Network Analyzer 
! Rohde-Schwarz,ZNB20-2Port,1311601062102243,3.20
! Created: UTC 10/31/2022, 10:27:44 AM
! freq[Hz]                re:S11                  im:S11                  re:S21                  im:S21                  re:S12                  im:S12                  re:S22                  im:S22
 7.000000000000000E8     7.725749479078354E-1    1.690249343542458E-1    3.516460408305522E-1   -7.351735025687434      -1.035567448439743E-2   -3.189141394783421E-3    1.732464417486285E-1   -3.293095708991731E-1
 7.010000000000000E8     7.750037174922683E-1    1.603784525134452E-1    2.783728786141198E-1   -7.353877241799766      -1.057039930846669E-2   -2.787122161124049E-3    1.669206248570142E-1   -3.303022120158589E-1
 7.020000000000000E8     7.768800817984435E-1    1.497841608476286E-1    2.480647681281236E-1   -7.368400308098249      -1.034335046448056E-2   -3.137028286535977E-3    1.646212101196538E-1   -3.317649411971080E-1
 7.030000000000000E8     7.778443779841889E-1    1.425457275452581E-1    1.743849496353338E-1   -7.378135917435603      -1.037778116005981E-2   -2.857783959148963E-3    1.614756968836440E-1   -3.335850703358371E-1
 7.040000000000000E8     7.791657332441311E-1    1.344008881127467E-1    1.337910506136077E-1   -7.379158981473948      -1.078543023068182E-2   -2.990163353822209E-3    1.603304980817005E-1   -3.325646713988053E-1
 7.050000000000000E8     7.815610046348329E-1    1.249072803917752E-1    5.601409240311185E-2   -7.392103680363647      -1.051578597745821E-2   -2.836508188376540E-3    1.566169842444285E-1   -3.353428649037962E-1
 7.060000000000000E8     7.841748382845390E-1    1.148800534252933E-1   -1.148180281531935E-3   -7.402125503773317      -1.094979115648196E-2   -2.483166543351565E-3    1.533456156293614E-1   -3.370132815481860E-1
 7.070000000000000E8     7.869115714612261E-1    1.056525478464588E-1   -9.059228778458923E-2   -7.398097354402221      -1.042805126122444E-2   -2.728686970515568E-3    1.500966029259626E-1   -3.380652618129135E-1
 7.080000000000000E8     7.875843919385953E-1    9.712475953491988E-2   -1.431547565274714E-1   -7.371457274092721      -1.037487333550376E-2   -2.400868025731449E-3    1.489869903219602E-1   -3.391053643724878E-1
 7.090000000000000E8     7.892251705976283E-1    8.810610063487695E-2   -2.188630694675274E-1   -7.371444470805755      -1.081830674920380E-2   -2.406836075105994E-3    1.430693278397934E-1   -3.391723614917582E-1
 7.100000000000000E8     7.906437672600165E-1    7.886732613188488E-2   -2.687147589600855E-1   -7.363486642497290      -1.068418404151291E-2   -2.483433618458345E-3    1.425564220104562E-1   -3.406177247892581E-1
 7.110000000000000E8     7.914372406728878E-1    6.951349732972321E-2   -3.264013846723564E-1   -7.364092638998351      -1.029779567161552E-2   -2.101248351100604E-3    1.380837983757880E-1   -3.400661949247571E-1
 7.120000000000000E8     7.903801692699588E-1    6.196938541768206E-2   -3.874266889645019E-1   -7.343851464916407      -1.062585441963852E-2   -2.233099604853699E-3    1.369906251276663E-1   -3.400541467063574E-1
 7.130000000000000E8     7.935188169595538E-1    5.144439585772392E-2   -4.696658800087621E-1   -7.347976706923608      -1.063554724011483E-2   -1.790655571146994E-3    1.356067049976758E-1   -3.434583087712014E-1
 7.140000000000000E8     7.950991288122815E-1    4.510824530387657E-2   -5.428106354339340E-1   -7.354011302193536      -1.069520359311840E-2   -2.211904212566734E-3    1.321940719968170E-1   -3.439759257008832E-1
 7.150000000000000E8     7.928314367765501E-1    3.233797399482566E-2   -5.946768582327193E-1   -7.333116661976223      -1.082762293946376E-2   -1.882860212543722E-3    1.277136168558094E-1   -3.464656060789420E-1
 7.160000000000000E8     7.938138096289807E-1    2.575414248380528E-2   -6.687660777796756E-1   -7.314117458101900      -1.108135185359226E-2   -1.650022561505606E-3    1.251448566870775E-1   -3.444772974786544E-1
 7.170000000000000E8     7.936566111356608E-1    1.633218538482415E-2   -7.412882697974482E-1   -7.324519075407214      -1.114602946150954E-2   -1.574707100013644E-3    1.214165149097911E-1   -3.450204068146720E-1
 7.180000000000000E8     7.948616587697369E-1    7.364983546565390E-3   -8.210223829408759E-1   -7.306800085391250      -1.143353059602032E-2   -1.599646574425048E-3    1.178347904061152E-1   -3.485073524014899E-1
 7.190000000000000E8     7.924309162405793E-1   -4.663950667107378E-3   -8.799977234322801E-1   -7.301822477235413      -1.078971578521606E-2   -1.905127417385592E-3    1.167897670124691E-1   -3.463119697734867E-1
 7.200000000000000E8     7.937836761455858E-1   -1.301412323523451E-2   -9.632361524714709E-1   -7.305573973434084      -1.108019297997699E-2   -1.239128479325425E-3    1.135889218546379E-1   -3.501240164432670E-1
 7.210000000000000E8     7.934755458747170E-1   -2.010253030534350E-2   -1.032850148418757      -7.292084864829007      -1.142281537150426E-2   -1.250932325236464E-3    1.114903260818662E-1   -3.500069309742881E-1
 7.220000000000000E8     7.946604913456415E-1   -3.066188869962344E-2   -1.096827290527844      -7.298818522081744      -1.130862401688985E-2   -1.264647954276823E-3    1.085728465287313E-1   -3.511702771218795E-1
 7.230000000000000E8     7.922639365676094E-1   -4.154342815936180E-2   -1.157229675287374      -7.308578845608529      -1.097889451349579E-2   -1.156448739822142E-3    1.055406394308226E-1   -3.507039888337321E-1
 7.240000000000000E8     7.934005277555909E-1   -5.002538026811219E-2   -1.233168192111604      -7.302372982974862      -1.125760510623720E-2   -1.451062223787397E-3    1.010898611470215E-1   -3.517768872725101E-1
 7.250000000000000E8     7.908435693065213E-1   -5.986018510897552E-2   -1.299604405668722      -7.306312882359553      -1.106296390012133E-2   -1.342890996538470E-3    9.822646146713633E-2   -3.528020162491678E-1
 7.260000000000000E8     7.919253329985803E-1   -6.651384913522836E-2   -1.346809311163163      -7.319987263555960      -1.110442268058845E-2   -8.790556573162506E-4    9.724209797145396E-2   -3.526670381305082E-1
 7.270000000000000E8     7.907472441953821E-1   -7.669122422030643E-2   -1.407454594945006      -7.306326531349163      -1.168598843541520E-2   -5.280019981256964E-4    9.385687569060122E-2   -3.563414673654904E-1
 7.280000000000000E8     7.891135419997207E-1   -8.650592418165171E-2   -1.483082401123205      -7.285309459936494      -1.114453839732305E-2   -9.845607283136314E-4    8.975701992905216E-2   -3.569167045576280E-1
 7.290000000000000E8     7.877234488976963E-1   -9.526181629318689E-2   -1.553853185367510      -7.281724227795923      -1.116931065881034E-2   -8.413085217765928E-4    8.797190041667760E-2   -3.530431932984920E-1
 7.300000000000000E8     7.899373261928053E-1   -1.036075328401432E-1   -1.606324953503731      -7.272751670710625      -1.153790303830010E-2   -1.091141527478862E-3    8.266370227851542E-2   -3.542895849552066E-1
 7.310000000000000E8     7.907328124579297E-1   -1.136745828749198E-1   -1.676551759245490      -7.273926017502836      -1.146581337351916E-2   -4.931910301146211E-4    8.102201940326746E-2   -3.591288207918866E-1
 7.320000000000000E8     7.852103674672449E-1   -1.206611750056306E-1   -1.712051845455154      -7.240654924955439      -1.157748778032938E-2   -7.109332637134371E-4    7.849596982716597E-2   -3.589013544179246E-1
 7.330000000000000E8     7.861100344176830E-1   -1.312490643327805E-1   -1.776135605506302      -7.224069210078695      -1.162986350680501E-2   -4.067309314964003E-4    7.705966606974989E-2   -3.588138888110441E-1
 7.340000000000000E8     7.851928317649535E-1   -1.405448023801122E-1   -1.860794381561414      -7.246605078382823      -1.116100319272518E-2   -1.421034274055275E-4    7.348872790636923E-2   -3.574727516753591E-1
 7.350000000000000E8     7.840510785124858E-1   -1.493514644636336E-1   -1.900320364260945      -7.201850469804111      -1.156962603971827E-2   -2.882172594837250E-4    7.084164300933203E-2   -3.599552480157841E-1
 7.360000000000000E8     7.844574392923285E-1   -1.581130656651734E-1   -1.959345991245007      -7.181967722460668      -1.154802167720639E-2   -5.187267807815464E-5    6.766260399078976E-2   -3.601008402405738E-1
 7.370000000000000E8     7.811445742732114E-1   -1.660151678835407E-1   -2.033597342582587      -7.179420517583138      -1.132272914659744E-2   -1.115507730637766E-4    6.407952850110900E-2   -3.584349853017688E-1
 7.380000000000000E8     7.795705051994113E-1   -1.743956742886528E-1   -2.072105841329351      -7.163822042269648      -1.128014873881618E-2   -3.145303724516541E-4    6.112725926970110E-2   -3.586118512719694E-1
 7.390000000000000E8     7.747204237400843E-1   -1.849812710375520E-1   -2.157025948577350      -7.110751423244267      -1.112307845178553E-2   -1.725929376863559E-4    5.717078513303710E-2   -3.599725377023757E-1
 7.400000000000000E8     7.731809272708499E-1   -1.928161497176930E-1   -2.203930868579163      -7.097716256399713      -1.151139008361840E-2    1.737428418029773E-4    5.554476611389902E-2   -3.613461345224349E-1
 7.410000000000000E8     7.718408960081838E-1   -1.994610776185864E-1   -2.263533730270806      -7.068744637424767      -1.131067958653397E-2    3.881058690318146E-4    5.363101437668738E-2   -3.618340168687075E-1
 7.420000000000000E8     7.702670863240091E-1   -2.108586954355305E-1   -2.344767283663607      -7.044965990324378      -1.138100151413102E-2    3.370115873519813E-4    5.048002505726043E-2   -3.618193198873035E-1
 7.430000000000000E8     7.669281381224448E-1   -2.204930599407134E-1   -2.405466572440337      -7.026165980945503      -1.132574846092087E-2    3.872731409567530E-4    4.666891208399147E-2   -3.592909913619424E-1
 7.440000000000000E8     7.626580887659685E-1   -2.291579074927951E-1   -2.487106569385561      -6.985292862969071      -1.149841917520612E-2    3.865135370610111E-4    4.502663243083700E-2   -3.607837270202284E-1
 7.450000000000000E8     7.588055986740528E-1   -2.378901408879532E-1   -2.544616017915050      -6.986611352919450      -1.149494637395942E-2    9.115818394851849E-4    4.235673260854834E-2   -3.618110914054430E-1
 7.460000000000000E8     7.593009184391690E-1   -2.466489848602778E-1   -2.608270625320577      -6.965807427420768      -1.177706475565587E-2    1.209600160075077E-3    3.780101664448528E-2   -3.605157955318311E-1
 7.470000000000000E8     7.525397285882771E-1   -2.534666826072279E-1   -2.682223450682069      -6.939644652185885      -1.173958800241186E-2    1.059273387497276E-3    3.491235453313690E-2   -3.619438539857517E-1
 7.480000000000000E8     7.530732029073035E-1   -2.643662441832209E-1   -2.769835864485124      -6.943010950420961      -1.138149148102133E-2    7.026726277108220E-4    3.376989314765243E-2   -3.610101316733978E-1
 7.490000000000000E8     7.484429613210212E-1   -2.719416891172371E-1   -2.816951452297329      -6.929895378069587      -1.144510858512594E-2    1.116859339305290E-3    3.027347939327173E-2   -3.592997606792995E-1
 7.500000000000000E8     7.462803091772957E-1   -2.809361826641798E-1   -2.888561908153618      -6.872575997793225      -1.191872826373057E-2    1.297347630920577E-3    2.656285521486535E-2   -3.635143395115685E-1
 7.510000000000000E8     7.425696633937511E-1   -2.888332224212146E-1   -2.958880019803954      -6.875545174619626      -1.161719454157738E-2    1.292205097440125E-3    2.269497800184852E-2   -3.635917736451247E-1
 7.520000000000000E8     7.399886555491396E-1   -2.971800383588126E-1   -2.996650054098014      -6.862747355928295      -1.176203953212288E-2    1.094246146058364E-3    2.397228960361679E-2   -3.636518293231582E-1
 7.530000000000000E8     7.336601153599241E-1   -3.050082834036999E-1   -3.078655373754120      -6.847410180457689      -1.199086501249985E-2    1.321294068206131E-3    1.975020237496364E-2   -3.609429584989067E-1
 7.540000000000000E8     7.332011843440229E-1   -3.154178102214353E-1   -3.122450764310159      -6.845273932857569      -1.170962032172646E-2    1.869253885297868E-3    1.455056221429924E-2   -3.620007778106965E-1
 7.550000000000000E8     7.295434174208676E-1   -3.229478364429573E-1   -3.191871332381982      -6.806022463391122      -1.169624305964829E-2    1.813897507381563E-3    1.054462612765197E-2   -3.617802400181790E-1
 7.560000000000000E8     7.279455930243953E-1   -3.311343336534785E-1   -3.260330399585886      -6.810698071085075      -1.150835990687139E-2    1.418189788855466E-3    9.591957329323313E-3   -3.607367846579481E-1
 7.570000000000000E8     7.253178487905865E-1   -3.410013278024782E-1   -3.316196129728096      -6.789739221923868      -1.210766539451229E-2    1.816193456959214E-3    7.386203656312813E-3   -3.624729842685877E-1
 7.580000000000000E8     7.196569095334673E-1   -3.458479702822781E-1   -3.355374883554763      -6.763980611684295      -1.215928171967320E-2    1.852591586986902E-3    2.672927537415255E-3   -3.606266056223067E-1
 7.590000000000000E8     7.174154736801812E-1   -3.548987899870725E-1   -3.414385714271992      -6.734455196938353      -1.184842342798570E-2    2.163075658595349E-3    4.210047318022299E-4   -3.617065549964875E-1
 7.600000000000000E8     7.130478147511405E-1   -3.644077765610111E-1   -3.495148278899911      -6.721731183425229      -1.170469654432720E-2    2.215023009836619E-3   -3.142661897930298E-3   -3.602903307473844E-1
 7.610000000000000E8     7.092201076195122E-1   -3.712040169310770E-1   -3.539051274988285      -6.675586992003928      -1.205843184883612E-2    1.993659802373725E-3   -5.710886506988904E-3   -3.583678899629091E-1
 7.620000000000000E8     7.077640045827353E-1   -3.773760904736153E-1   -3.574033861848898      -6.646501351106958      -1.210462431630497E-2    2.143213479856692E-3   -7.509483697840053E-3   -3.587265841432075E-1
 7.630000000000000E8     7.003685279049393E-1   -3.875091870559935E-1   -3.632315984670570      -6.612851984182567      -1.139188623137849E-2    2.326115344436113E-3   -8.953059517868279E-3   -3.588697734184343E-1
 7.640000000000000E8     6.961608111078950E-1   -3.959038142855167E-1   -3.714995665226214      -6.582673256335159      -1.142999483637721E-2    2.339365840615941E-3   -1.464817215353448E-2   -3.581369665280298E-1
 7.650000000000000E8     6.909585602326567E-1   -4.018282350348422E-1   -3.754418497355420      -6.534914508502236      -1.147222945885075E-2    2.614350413572581E-3   -1.938839661806764E-2   -3.579861381259590E-1
 7.660000000000000E8     6.843997580692704E-1   -4.091469608762253E-1   -3.839841555631256      -6.506092622183243      -1.193856452266918E-2    2.497123849001993E-3   -2.016175428849548E-2   -3.574587083060043E-1
 7.670000000000000E8     6.805335067968848E-1   -4.163258477757323E-1   -3.880639340236306      -6.473184579720455      -1.198822827990890E-2    2.779028113544368E-3   -2.545606979375193E-2   -3.569264409647332E-1
 7.680000000000000E8     6.753355289048919E-1   -4.254211490999968E-1   -3.939339710142854      -6.426212637407081      -1.187984237098063E-2    2.624933829178613E-3   -2.487207328961141E-2   -3.546704735129542E-1
 7.690000000000000E8     6.712790647203688E-1   -4.325761570855984E-1   -4.009614873669614      -6.406992247055505      -1.223799301372891E-2    3.001637876875025E-3   -2.901828332730575E-2   -3.530605170782891E-1
 7.700000000000000E8     6.666858043148707E-1   -4.398474185007090E-1   -4.055987526021676      -6.354284863455832      -1.139810502774413E-2    2.668993763279622E-3   -3.386829706197528E-2   -3.563911882416381E-1
 7.710000000000000E8     6.583836437764020E-1   -4.473240905183045E-1   -4.140566431627145      -6.314992726633854      -1.202726104345864E-2    3.322677389578963E-3   -3.717258211847661E-2   -3.538801973756031E-1
 7.720000000000000E8     6.543775227666080E-1   -4.555607255258797E-1   -4.189951915980156      -6.279339276485656      -1.204567950767049E-2    3.086137454580921E-3   -3.930545502068530E-2   -3.538764103820129E-1
 7.730000000000000E8     6.493782794853721E-1   -4.617581257242748E-1   -4.244786133775087      -6.255285838987771      -1.137767655355520E-2    3.205024049162850E-3   -4.160792320682834E-2   -3.533251907697735E-1
 7.740000000000000E8     6.435820376584745E-1   -4.692859289496382E-1   -4.314468382846303      -6.198601905780260      -1.235377473886374E-2    3.454000932866862E-3   -4.408194894744531E-2   -3.549950068792237E-1
 7.750000000000000E8     6.400645480049904E-1   -4.773577543173775E-1   -4.383719069917710      -6.175295874132450      -1.178447466987014E-2    3.624962542485448E-3   -4.757638364295043E-2   -3.531967289148876E-1
 7.760000000000000E8     6.355395157496999E-1   -4.844982498510069E-1   -4.453773583803771      -6.157254722283848      -1.176598641215984E-2    3.505309633824075E-3   -5.140680778521210E-2   -3.506133269906454E-1
 7.770000000000000E8     6.299209140071905E-1   -4.903123899435412E-1   -4.472246666267512      -6.118214956332216      -1.171286560328429E-2    3.420234636603110E-3   -5.334808828719926E-2   -3.499705762057289E-1
 7.780000000000000E8     6.240666088040931E-1   -4.987850513765946E-1   -4.565212520250459      -6.100363727733696      -1.187499139564385E-2    3.651357346264606E-3   -5.639505423839878E-2   -3.492134953395713E-1
 7.790000000000000E8     6.174846194568679E-1   -5.070488184841585E-1   -4.631037000977403      -6.045442974079046      -1.211768465616112E-2    3.946270979282200E-3   -6.024718268543550E-2   -3.483713024637488E-1
 7.800000000000000E8     6.147080086607387E-1   -5.144348074343164E-1   -4.687539830685380      -6.046708136406414      -1.187854487143259E-2    3.751730092563242E-3   -6.279875695934381E-2   -3.501669405190923E-1
 7.810000000000000E8     6.091054556888553E-1   -5.226440848706609E-1   -4.737838850024604      -6.010199639500175      -1.189177657001302E-2    3.921068974516699E-3   -6.610194287384390E-2   -3.463903952390290E-1
 7.820000000000000E8     6.029263187236441E-1   -5.275959856851868E-1   -4.796620941004635      -5.966151973058338      -1.217921248303509E-2    4.208396436926050E-3   -7.055212836692494E-2   -3.453379589409378E-1
 7.830000000000000E8     5.977513979624934E-1   -5.338660943412179E-1   -4.821713756347667      -5.934702801796314      -1.159354898240282E-2    3.950833913196633E-3   -7.256227391086290E-2   -3.456092925848480E-1
 7.840000000000000E8     5.917843767435098E-1   -5.434339119909215E-1   -4.904838613279717      -5.898143882199938      -1.157050963084838E-2    4.114572358670349E-3   -7.448526874933754E-2   -3.445909114046190E-1
 7.850000000000000E8     5.842583826576392E-1   -5.484528173315066E-1   -4.948701646134468      -5.854540374178387      -1.171862017547166E-2    4.480439271252078E-3   -7.791621830480726E-2   -3.471415145337763E-1
 7.860000000000000E8     5.796229793148739E-1   -5.548281900184221E-1   -4.980228089822171      -5.824405939778251      -1.176520740438373E-2    4.348325969679176E-3   -8.147929107325666E-2   -3.414295226830353E-1
 7.870000000000000E8     5.734771289703948E-1   -5.618067850222057E-1   -5.048867396212080      -5.794866744595783      -1.179810339567441E-2    4.825415403856816E-3   -8.254997357847810E-2   -3.429468308540448E-1
 7.880000000000000E8     5.652021825846517E-1   -5.671536572588733E-1   -5.094182512300623      -5.739547163455999      -1.169548816446037E-2    4.718030425950888E-3   -8.876888491440735E-2   -3.421226691185200E-1
 7.890000000000000E8     5.595211409059057E-1   -5.732145154621116E-1   -5.136734990144928      -5.678209182769613      -1.151988483964278E-2    4.792645633684220E-3   -8.912330700760943E-2   -3.397845379477437E-1
 7.900000000000000E8     5.529412098027273E-1   -5.789101595821462E-1   -5.194115596686026      -5.641869735287466      -1.151341986405969E-2    4.915011047801114E-3   -9.409566081230215E-2   -3.391890304459572E-1
