#  HZ   S   RI   R     50.00 
! Rohde & Schwarz Vector Network Analyzer 
! Rohde-Schwarz,ZNB20-2Port,1311601062102243,3.20
! Created: UTC 11/3/2022, 3:22:56 PM
! freq[Hz]                re:S11                  im:S11                  re:S21                  im:S21                  re:S12                  im:S12                  re:S22                  im:S22
 7.000000000000000E8     7.641309701427068E-1    1.175420651818422E-1    7.338354125013416      -5.119010445820411      -2.776188478175384E-3   -1.074847285335479E-2    4.646106303761195E-1    3.449134644517266E-1
 7.010000000000000E8     7.663388356087498E-1    1.073244691740087E-1    7.290149073937211      -5.195432052647302      -3.048330616955950E-3   -1.079774408848651E-2    4.680671983251731E-1    3.454875333863879E-1
 7.020000000000000E8     7.671574088298703E-1    9.837608230169217E-2    7.286870038914533      -5.228588527693947      -2.723515440898916E-3   -1.067195427280236E-2    4.652216071885538E-1    3.417338095035713E-1
 7.030000000000000E8     7.668916870645254E-1    9.019127484214208E-2    7.232877711937442      -5.307350726997496      -3.111630516868260E-3   -1.075134861606024E-2    4.673787644085040E-1    3.406882464099842E-1
 7.040000000000000E8     7.684773271714207E-1    8.267473226766497E-2    7.224230142775100      -5.341480216150504      -3.271441294117904E-3   -1.041862295225321E-2    4.712862958795616E-1    3.388648897378738E-1
 7.050000000000000E8     7.690679461612858E-1    7.364450633198316E-2    7.191761731990180      -5.416902672351211      -3.023918491430235E-3   -1.103334689020088E-2    4.690351198950797E-1    3.374624215898369E-1
 7.060000000000000E8     7.718184901981620E-1    6.393693700428352E-2    7.176794011479083      -5.482306258806436      -3.046151854470868E-3   -1.061839893597648E-2    4.728667454389379E-1    3.325916021392004E-1
 7.070000000000000E8     7.739491954986053E-1    5.499388835120337E-2    7.125043266014599      -5.568535169758109      -2.751772507885473E-3   -1.074081034690283E-2    4.735864239002976E-1    3.309159653171286E-1
 7.080000000000000E8     7.738256972309648E-1    4.814177364116675E-2    7.079238172097600      -5.614222235019054      -3.461449430274283E-3   -1.048556666264813E-2    4.780276720194484E-1    3.286908920973217E-1
 7.090000000000000E8     7.763373312570350E-1    3.687183947097996E-2    7.047995310224327      -5.688241663777098      -3.410260690328150E-3   -1.111706288512857E-2    4.770354641426087E-1    3.263952470203577E-1
 7.100000000000000E8     7.767115911189185E-1    2.883270621111525E-2    7.031403820549921      -5.718156923208873      -3.361017590398442E-3   -1.123777402045425E-2    4.792163287787591E-1    3.236879320213319E-1
 7.110000000000000E8     7.775178104675521E-1    1.905640973417123E-2    6.997924070250645      -5.757937435809520      -3.882825781911655E-3   -1.044240235303886E-2    4.802322479244436E-1    3.211325548359745E-1
 7.120000000000000E8     7.761099107159016E-1    1.320736280086880E-2    6.968746547635743      -5.797310282449279      -3.958102536971010E-3   -1.067194742942749E-2    4.832955021235845E-1    3.170407983506833E-1
 7.130000000000000E8     7.768226125193833E-1    2.146205419508888E-3    6.921032839244760      -5.866731999021208      -3.775915524284133E-3   -1.066305938184874E-2    4.835036438351055E-1    3.154098620572332E-1
 7.140000000000000E8     7.764444738932781E-1   -5.097737877830638E-3    6.897862089644358      -5.921502015806990      -3.665140680834016E-3   -1.068875197313003E-2    4.869129129114037E-1    3.150849201920727E-1
 7.150000000000000E8     7.761132973253489E-1   -1.744444935301524E-2    6.847636322392697      -5.949446194783987      -3.952088529754947E-3   -1.082240356098879E-2    4.890558192235121E-1    3.089671417405421E-1
 7.160000000000000E8     7.757198199963276E-1   -2.407476305234803E-2    6.785704386208787      -5.988188495762651      -3.946710714746032E-3   -1.058246819787404E-2    4.895988414530597E-1    3.083291273127730E-1
 7.170000000000000E8     7.775091116807539E-1   -3.562293175029129E-2    6.745743773812777      -6.053608527888295      -4.043372674120371E-3   -1.099846014445644E-2    4.927048207988078E-1    3.060775872969849E-1
 7.180000000000000E8     7.760719101698863E-1   -4.121917287957155E-2    6.687415028607397      -6.102271049546499      -4.057524533577136E-3   -1.103060296675662E-2    4.939057486027201E-1    3.042737394108753E-1
 7.190000000000000E8     7.739116796750923E-1   -5.306879843076692E-2    6.653154176600438      -6.122153075359611      -4.374397211710799E-3   -1.095004455061968E-2    4.954625915253654E-1    3.005502331225411E-1
 7.200000000000000E8     7.755632021310432E-1   -5.975906798974977E-2    6.594002165111384      -6.199442871584445      -4.245554118190816E-3   -1.025467538007704E-2    4.986547607561352E-1    2.977225321504285E-1
 7.210000000000000E8     7.730741517470866E-1   -6.814631944221655E-2    6.550440151333661      -6.239967641248546      -4.190564171318859E-3   -1.053235869487032E-2    5.011977643707211E-1    2.940991809855982E-1
 7.220000000000000E8     7.716232988437565E-1   -7.978458901155075E-2    6.471195455669281      -6.300674828116537      -4.905252463417525E-3   -1.063152162418370E-2    5.034129852596203E-1    2.906978711618460E-1
 7.230000000000000E8     7.711949951987161E-1   -8.812193923261433E-2    6.475289101319447      -6.328916542306526      -4.805987476597346E-3   -1.068773778309308E-2    5.059804924765381E-1    2.896723995773220E-1
 7.240000000000000E8     7.696111388634067E-1   -9.532188613051654E-2    6.397610327240453      -6.379133485279859      -4.142286223810021E-3   -1.066637835208587E-2    5.047174593825177E-1    2.887772158875676E-1
 7.250000000000000E8     7.680951346233464E-1   -1.052636746194377E-1    6.357902460526556      -6.436653327119608      -4.318088607498661E-3   -1.037269285084334E-2    5.075659875028743E-1    2.858614592197138E-1
 7.260000000000000E8     7.666772873348853E-1   -1.124566159408990E-1    6.327660407932007      -6.478664624045917      -4.561450291794447E-3   -1.044330967319044E-2    5.100303238932326E-1    2.818953577905094E-1
 7.270000000000000E8     7.669059305625131E-1   -1.230459281950233E-1    6.280289564204167      -6.549288176822485      -5.074557110299318E-3   -1.069675379767534E-2    5.113212469988208E-1    2.809323177013401E-1
 7.280000000000000E8     7.668872002158271E-1   -1.331557205105989E-1    6.225822282117806      -6.614273388634464      -5.057318581770545E-3   -1.073715987236445E-2    5.123764262906837E-1    2.759118023068510E-1
 7.290000000000000E8     7.657905587592515E-1   -1.398384836949320E-1    6.170452124834920      -6.658370518315603      -4.949582654856908E-3   -1.063728045846843E-2    5.137858367088576E-1    2.750080894885861E-1
 7.300000000000000E8     7.637515295453544E-1   -1.494693126321104E-1    6.097818405881308      -6.693384194164924      -5.031545342225050E-3   -1.024319199910303E-2    5.154534454447856E-1    2.733586296183347E-1
 7.310000000000000E8     7.629434680963374E-1   -1.576889672128011E-1    6.088372425363001      -6.753074888360663      -5.047795571235663E-3   -1.046954197753755E-2    5.178391051233375E-1    2.689881970802367E-1
 7.320000000000000E8     7.607833818874231E-1   -1.663713362006654E-1    6.037509596338128      -6.793227658649100      -5.374149403960822E-3   -1.065815596255033E-2    5.212790854238771E-1    2.667502309704500E-1
 7.330000000000000E8     7.604848513127912E-1   -1.747946727720615E-1    5.993996854403413      -6.839424994732268      -4.886651914001706E-3   -1.057217345172022E-2    5.211352330380150E-1    2.650065745046145E-1
 7.340000000000000E8     7.595317855605886E-1   -1.833792665864938E-1    5.989971099815429      -6.923121389987622      -5.529036685278321E-3   -1.053203826211272E-2    5.253230506954708E-1    2.644084758111040E-1
 7.350000000000000E8     7.581034358230737E-1   -1.927181341916611E-1    5.914660527738397      -6.945847780992581      -5.456271579411961E-3   -1.066388548226467E-2    5.236787396220620E-1    2.609812575772999E-1
 7.360000000000000E8     7.599115298945677E-1   -2.001035659572728E-1    5.886619086871804      -6.979055795207158      -5.340426682116337E-3   -1.048785483498522E-2    5.275443681495895E-1    2.589176816758878E-1
 7.370000000000000E8     7.546881449892391E-1   -2.092891057726677E-1    5.841844323167556      -7.048355122721590      -5.510620854003099E-3   -1.039258483145641E-2    5.300340469317671E-1    2.574245357014383E-1
 7.380000000000000E8     7.508785678706960E-1   -2.172988897199326E-1    5.828602713389314      -7.059018484431877      -5.544696890600061E-3   -1.011130926837957E-2    5.306412557904565E-1    2.563707446425251E-1
 7.390000000000000E8     7.489747769841753E-1   -2.275940801692756E-1    5.746550205685251      -7.112216600602418      -5.506087429326875E-3   -1.007864865789983E-2    5.316107769289511E-1    2.540633324162362E-1
 7.400000000000000E8     7.472615741126021E-1   -2.352001098387177E-1    5.709530576952821      -7.151288460383397      -5.691191413422076E-3   -1.091876993826597E-2    5.327695580019269E-1    2.514170794967136E-1
 7.410000000000000E8     7.443458918878778E-1   -2.427806052633422E-1    5.668276669352077      -7.174737493282152      -5.870056835919684E-3   -1.066917316941794E-2    5.382153092416578E-1    2.480125627784105E-1
 7.420000000000000E8     7.415804473163861E-1   -2.522518213753528E-1    5.616325275985655      -7.230460518946881      -5.804821489156146E-3   -1.066140619312586E-2    5.377695372368498E-1    2.484589077410890E-1
 7.430000000000000E8     7.381360486104100E-1   -2.609104493920239E-1    5.572827503111691      -7.259942388454682      -5.458150074021424E-3   -1.029480539968379E-2    5.366778408705346E-1    2.475888131574079E-1
 7.440000000000000E8     7.343733949066379E-1   -2.691029728520808E-1    5.496402929833915      -7.295969916441564      -5.731787827950648E-3   -1.043614507360079E-2    5.392680952034676E-1    2.432940925954498E-1
 7.450000000000000E8     7.310238159467729E-1   -2.784474297936584E-1    5.473430253168295      -7.334048917195178      -5.838167626908696E-3   -1.044396158308658E-2    5.420737823146006E-1    2.398986235507118E-1
 7.460000000000000E8     7.282634737723030E-1   -2.853296091004265E-1    5.418481284203359      -7.353550580273205      -6.149490878666225E-3   -1.039698870764684E-2    5.436335748862001E-1    2.386273919042965E-1
 7.470000000000000E8     7.226415161804070E-1   -2.950195190880052E-1    5.340259715570488      -7.391580354038814      -6.097294703657383E-3   -1.018051281301684E-2    5.451883363454545E-1    2.371120556288199E-1
 7.480000000000000E8     7.213014549245947E-1   -3.045837072059412E-1    5.307787497363520      -7.462504905187766      -5.974803171964506E-3   -1.038384485187879E-2    5.461564815529715E-1    2.371475833371434E-1
 7.490000000000000E8     7.179949611932147E-1   -3.121496813869357E-1    5.279961818640878      -7.493543952439464      -6.452314656038832E-3   -1.054767230513129E-2    5.461151161794030E-1    2.358969015427838E-1
 7.500000000000000E8     7.139728995396156E-1   -3.197352734957081E-1    5.179122220494278      -7.521794479477310      -6.480041256899946E-3   -9.809494439563480E-3    5.477025423164984E-1    2.312685965780145E-1
 7.510000000000000E8     7.110874072688231E-1   -3.275788906580043E-1    5.120555926961234      -7.588569737593049      -6.157778633976036E-3   -1.017122911352131E-2    5.486706875146912E-1    2.323172261577607E-1
 7.520000000000000E8     7.072454525879703E-1   -3.368615285652415E-1    5.080958873806770      -7.586206652379889      -6.617171547439829E-3   -1.015607497314589E-2    5.538113085653045E-1    2.280487596954357E-1
 7.530000000000000E8     7.034080359491092E-1   -3.438600129079497E-1    5.048325068142982      -7.653212948605097      -6.546169452945279E-3   -1.048561022976182E-2    5.535041868299340E-1    2.285836211360003E-1
 7.540000000000000E8     7.022739830802559E-1   -3.544070348258995E-1    5.007687537693144      -7.685766239811084      -6.150230305773316E-3   -1.022814634492409E-2    5.552661329859251E-1    2.283163113714428E-1
 7.550000000000000E8     6.972909919635202E-1   -3.618747206152505E-1    4.928409687679559      -7.748427553022192      -6.721325462731409E-3   -1.004417933874182E-2    5.513258284186610E-1    2.237598373051171E-1
 7.560000000000000E8     6.950069936448384E-1   -3.694059859952703E-1    4.900034125409412      -7.807443399703489      -7.039312447595194E-3   -1.048651610155189E-2    5.555350384367855E-1    2.221728482891919E-1
 7.570000000000000E8     6.914921316681975E-1   -3.772251465319433E-1    4.861468013786180      -7.825273314079830      -7.226612568659698E-3   -1.056068548407448E-2    5.559507627101015E-1    2.200640554763506E-1
 7.580000000000000E8     6.875631149757770E-1   -3.853300757471662E-1    4.818733405242839      -7.881526812313649      -6.743339877520403E-3   -1.024619397826071E-2    5.543128891566774E-1    2.189858014421013E-1
 7.590000000000000E8     6.824358528623706E-1   -3.932058523376935E-1    4.750877343183460      -7.933606212633582      -7.272345840115751E-3   -1.003736607532298E-2    5.572427561917886E-1    2.176762895803997E-1
 7.600000000000000E8     6.789118599192386E-1   -4.007984220272498E-1    4.732805827082315      -7.969920065803816      -6.763480774312348E-3   -1.033585827692434E-2    5.596160941602801E-1    2.157637678649506E-1
 7.610000000000000E8     6.734793114189437E-1   -4.084331707895048E-1    4.672810054133678      -8.025953011286060      -7.271987866834079E-3   -1.010253990115590E-2    5.586097432755985E-1    2.153254040044636E-1
 7.620000000000000E8     6.710524446479599E-1   -4.160184515748976E-1    4.624399831168380      -8.049358385294095      -7.199318395653301E-3   -1.046293735154079E-2    5.601448789543959E-1    2.120924497133179E-1
 7.630000000000000E8     6.646345441705859E-1   -4.251383356225825E-1    4.570986450511030      -8.080490698074446      -7.682000661352671E-3   -9.837530378128536E-3    5.631381294334300E-1    2.105873025196065E-1
 7.640000000000000E8     6.588833217367513E-1   -4.317073329068972E-1    4.541871215464839      -8.141970062511568      -7.696967811983222E-3   -9.974081620561492E-3    5.612745456140062E-1    2.073238687476204E-1
 7.650000000000000E8     6.554567896873089E-1   -4.387626715099871E-1    4.488639461113831      -8.187208231141918      -7.564801777400126E-3   -1.012695736522320E-2    5.598359578822008E-1    2.057056327572805E-1
 7.660000000000000E8     6.473568134710653E-1   -4.466531607891923E-1    4.423015018540045      -8.261679533272119      -7.877774215635550E-3   -1.017416887738034E-2    5.611785663216388E-1    2.028881018958076E-1
 7.670000000000000E8     6.437334404633382E-1   -4.540530998204191E-1    4.413819184806763      -8.274801571804696      -7.403606517690616E-3   -9.993195364587931E-3    5.601988273525857E-1    2.022255358948148E-1
 7.680000000000000E8     6.364186483224193E-1   -4.598636201957311E-1    4.320987683310215      -8.285839068620799      -7.067338608278414E-3   -1.058842965360185E-2    5.632980226154930E-1    1.996027795382665E-1
 7.690000000000000E8     6.326069628461020E-1   -4.691305299048520E-1    4.271391193624117      -8.359667020923842      -7.834824410954351E-3   -1.011549423956214E-2    5.625072884063433E-1    1.979067580384285E-1
 7.700000000000000E8     6.271631889708301E-1   -4.774273634534232E-1    4.226457867883980      -8.367831876022182      -7.364900548446005E-3   -9.967768934390695E-3    5.627866739883177E-1    1.920992767587724E-1
 7.710000000000000E8     6.171215690482490E-1   -4.832448825264848E-1    4.153635731765704      -8.412580955029856      -7.757089877812798E-3   -1.025962574702591E-2    5.636694120325781E-1    1.891485103427348E-1
 7.720000000000000E8     6.146511359671704E-1   -4.893261615757076E-1    4.124366224152815      -8.439906573795286      -7.773031374225997E-3   -1.014684939260217E-2    5.640654450678962E-1    1.892754493479120E-1
 7.730000000000000E8     6.109241844760007E-1   -4.967798064267477E-1    4.060696430512330      -8.507208824091675      -7.834191337830688E-3   -1.010565670584463E-2    5.646858691341440E-1    1.852919511546177E-1
 7.740000000000000E8     6.046289762496336E-1   -5.044699678452891E-1    3.989716317342825      -8.515815652906570      -7.951590095542034E-3   -1.010699106537795E-2    5.659419995934100E-1    1.811854059585025E-1
 7.750000000000000E8     5.997745858963285E-1   -5.095569538976689E-1    3.934679630176563      -8.542868512670417      -8.176915617897278E-3   -9.282026135170414E-3    5.651203014130236E-1    1.784307331431464E-1
 7.760000000000000E8     5.932270871440876E-1   -5.168662022653306E-1    3.869425378889362      -8.586899180775445      -8.614042256948552E-3   -9.811075875884551E-3    5.645586350984141E-1    1.772024256495134E-1
 7.770000000000000E8     5.892107520509950E-1   -5.237755667124915E-1    3.822454298741488      -8.596242525234084      -8.039007053712445E-3   -1.022184445277924E-2    5.651003436571836E-1    1.695411810461550E-1
 7.780000000000000E8     5.831877072388225E-1   -5.302907707435188E-1    3.750055823900960      -8.671775124320799      -8.336323504041886E-3   -9.888057264909725E-3    5.654674252170045E-1    1.685934314016178E-1
 7.790000000000000E8     5.751033418986835E-1   -5.384568358893871E-1    3.657585655401507      -8.708751957037615      -8.473314901930653E-3   -1.008144954857827E-2    5.657198507499938E-1    1.645428848458792E-1
 7.800000000000000E8     5.724687095512888E-1   -5.445850266205107E-1    3.651457268803653      -8.748259740906056      -8.221990017743968E-3   -9.943590464187035E-3    5.641708143268481E-1    1.604186913820367E-1
 7.810000000000000E8     5.666820689048240E-1   -5.519958096920887E-1    3.572761829459612      -8.783107391075401      -8.709615577098248E-3   -9.990629902535667E-3    5.658358933119148E-1    1.578457174152586E-1
 7.820000000000000E8     5.617396668913062E-1   -5.588498035918720E-1    3.495566957598725      -8.842708519381551      -8.379958472632090E-3   -9.688565392415341E-3    5.661804336872333E-1    1.537562801624542E-1
 7.830000000000000E8     5.543806305861464E-1   -5.650655507782437E-1    3.433970095044901      -8.847153194717562      -8.916767351819255E-3   -9.562559924881857E-3    5.662031099484270E-1    1.507699774293270E-1
 7.840000000000000E8     5.476659823170457E-1   -5.730220662339931E-1    3.365375073665430      -8.929176431771594      -9.068627123557936E-3   -9.703923143231236E-3    5.673644305047585E-1    1.445161429824093E-1
 7.850000000000000E8     5.418898057809998E-1   -5.778192982569362E-1    3.288484087709774      -8.960729307648441      -9.195864442982520E-3   -9.819580221862618E-3    5.682009445007257E-1    1.393229030547253E-1
 7.860000000000000E8     5.340123243666257E-1   -5.835701232469185E-1    3.239764356662517      -8.994570319974306      -8.932914424870398E-3   -9.660216270321357E-3    5.667610017524309E-1    1.356641417227465E-1
 7.870000000000000E8     5.278001151057287E-1   -5.912087210891037E-1    3.189548209994909      -9.062027837325207      -9.356280335726922E-3   -9.780130542578661E-3    5.678779939561829E-1    1.319024694980589E-1
 7.880000000000000E8     5.213332945683118E-1   -5.949632330458270E-1    3.112955453850176      -9.089472233351353      -9.217192883675493E-3   -9.416761864294194E-3    5.671491137453005E-1    1.245378771284417E-1
 7.890000000000000E8     5.138368428968451E-1   -5.991832674438058E-1    3.043221271806640      -9.126775396827137      -9.121724764298582E-3   -9.793530498439352E-3    5.674335575832273E-1    1.227535514491663E-1
 7.900000000000000E8     5.078163423288373E-1   -6.053116757633261E-1    2.979839537616140      -9.173036539165835      -9.424558615151924E-3   -9.342218681458885E-3    5.681777550327785E-1    1.149971595771074E-1
