#  HZ   S   RI   R     50.00 
! Rohde & Schwarz Vector Network Analyzer 
! Rohde-Schwarz,ZNB20-2Port,1311601062102243,3.20
! Created: UTC 11/3/2022, 2:37:17 PM
! freq[Hz]                re:S11                  im:S11                  re:S21                  im:S21                  re:S12                  im:S12                  re:S22                  im:S22
 7.000000000000000E8     7.712802741370433E-1    1.494954651656295E-1    8.456317132546246      -3.551385419242344      -1.323093459809097E-3   -1.251343149402710E-2    3.173593404694997E-1    3.401840256632690E-1
 7.010000000000000E8     7.716863201314353E-1    1.409147925088659E-1    8.407191293009538      -3.633776018815445      -1.490413922140504E-3   -1.250720361305153E-2    3.159347845644848E-1    3.397270839998755E-1
 7.020000000000000E8     7.748478617027911E-1    1.322804798031805E-1    8.414865734595065      -3.666394692053729      -1.345417532763361E-3   -1.235821029397134E-2    3.171857833355058E-1    3.369071336303682E-1
 7.030000000000000E8     7.753970010122010E-1    1.246310018354130E-1    8.393498859112798      -3.758596740707896      -1.651195654427273E-3   -1.241873602985678E-2    3.189581840069692E-1    3.364763990023613E-1
 7.040000000000000E8     7.757385217006175E-1    1.135487942236396E-1    8.371122610073673      -3.807472318510890      -1.775035162987051E-3   -1.229834429528701E-2    3.212711399564955E-1    3.375823559832911E-1
 7.050000000000000E8     7.779772174670236E-1    1.050011935847707E-1    8.358813494002145      -3.883565006439598      -1.700930476410958E-3   -1.230531055753617E-2    3.222268784189958E-1    3.334012573648734E-1
 7.060000000000000E8     7.799359178372748E-1    9.672981057940958E-2    8.362707822922326      -3.960132575996083      -1.470542478345218E-3   -1.269008788067794E-2    3.227275197553645E-1    3.310632784213999E-1
 7.070000000000000E8     7.808836613571173E-1    8.642632343380777E-2    8.319189472477980      -4.048624164606107      -1.791279330446846E-3   -1.279365955061840E-2    3.256125922040735E-1    3.307065823723442E-1
 7.080000000000000E8     7.827600941900975E-1    7.984511910073690E-2    8.300155109302757      -4.105930756266627      -1.554620200860021E-3   -1.246958817870220E-2    3.268286901381736E-1    3.286118038064375E-1
 7.090000000000000E8     7.846207095659725E-1    6.963411338557736E-2    8.300418343003830      -4.186756355930391      -2.286080315921893E-3   -1.224478830910028E-2    3.262106071500970E-1    3.273967013446484E-1
 7.100000000000000E8     7.864031378128683E-1    6.071150113590169E-2    8.288581760721330      -4.232031920843955      -2.222954579074671E-3   -1.230741735057862E-2    3.311662662205747E-1    3.270616010331268E-1
 7.110000000000000E8     7.868884848796073E-1    5.166667811909820E-2    8.268535901745373      -4.277429182414991      -2.029744991598290E-3   -1.219908512378472E-2    3.314772154582630E-1    3.245368407157648E-1
 7.120000000000000E8     7.872996578797914E-1    4.488492426326371E-2    8.254295787973545      -4.333653964229369      -2.175188903623901E-3   -1.227150782336819E-2    3.325551000879012E-1    3.225876927926736E-1
 7.130000000000000E8     7.898938807306185E-1    3.380099963337372E-2    8.242872631916162      -4.406271966355897      -2.595797076275018E-3   -1.253192030485183E-2    3.331188921874169E-1    3.202804276942343E-1
 7.140000000000000E8     7.879817593260520E-1    2.571168412967499E-2    8.215289016871624      -4.468744461109993      -2.157929051918943E-3   -1.271109258011647E-2    3.368988471669352E-1    3.201781305913955E-1
 7.150000000000000E8     7.891276070403493E-1    1.344531247087893E-2    8.182141587835664      -4.518146337238060      -2.327413671786932E-3   -1.232061567076575E-2    3.391850099748773E-1    3.149411476686296E-1
 7.160000000000000E8     7.882834371959280E-1    6.958560432820483E-3    8.141891561135456      -4.575386797601088      -2.658126845963365E-3   -1.269670737196912E-2    3.382985416334742E-1    3.144374619519143E-1
 7.170000000000000E8     7.883078066946143E-1   -3.139440794366139E-3    8.113145795291191      -4.621306700486078      -2.236714869119913E-3   -1.228681879635851E-2    3.415633699251216E-1    3.135664197392420E-1
 7.180000000000000E8     7.899449038620929E-1   -1.297896406991314E-2    8.068707496821885      -4.711464803326216      -2.784082340984037E-3   -1.249636111765862E-2    3.420521331467235E-1    3.125030594826018E-1
 7.190000000000000E8     7.884425374477111E-1   -2.316175276997807E-2    8.049016012008080      -4.738209191927000      -2.149055089648785E-3   -1.237172425683131E-2    3.438685590927958E-1    3.110313541046439E-1
 7.200000000000000E8     7.892287308328031E-1   -3.044808442773558E-2    8.013742434890808      -4.818470316466413      -2.982512861193482E-3   -1.224451497545726E-2    3.489050264746215E-1    3.067814039854910E-1
 7.210000000000000E8     7.855513348481511E-1   -3.650953773641176E-2    7.972869124781159      -4.854147096160864      -2.869478381719467E-3   -1.238250857146014E-2    3.497337751371801E-1    3.059539689803349E-1
 7.220000000000000E8     7.860818711137580E-1   -4.963855565687623E-2    7.922321603251864      -4.938225383158101      -2.591512821322411E-3   -1.239625637774686E-2    3.550222720819159E-1    3.042420576610252E-1
 7.230000000000000E8     7.851658094043600E-1   -5.886995692811994E-2    7.903603366779000      -4.967973455727090      -2.691231786121539E-3   -1.270340867266659E-2    3.523777957917935E-1    3.020689217878917E-1
 7.240000000000000E8     7.853673254863685E-1   -6.785924596729959E-2    7.851201758792959      -5.049101373784458      -3.407909423477504E-3   -1.252876901191679E-2    3.551514338238426E-1    2.993618336394435E-1
 7.250000000000000E8     7.844602872183021E-1   -7.625037333593758E-2    7.827567316126053      -5.094085172996965      -3.123994521556883E-3   -1.264496252370400E-2    3.590388833013285E-1    3.007612793430975E-1
 7.260000000000000E8     7.838392007379729E-1   -8.496154837086133E-2    7.798465024346354      -5.146871996548231      -2.973234579139969E-3   -1.275983648473557E-2    3.609385310768009E-1    2.967511269694899E-1
 7.270000000000000E8     7.835401361719454E-1   -9.244483588149260E-2    7.763328387454380      -5.203510543850984      -3.393359638853593E-3   -1.268307579665593E-2    3.634172575564742E-1    2.941105628658750E-1
 7.280000000000000E8     7.800442959933951E-1   -1.035715880937804E-1    7.707495656129120      -5.283910953622656      -3.723252051886099E-3   -1.232109990220953E-2    3.649008471504023E-1    2.935214109039613E-1
 7.290000000000000E8     7.825521879336209E-1   -1.118803418847540E-1    7.686007624393359      -5.351408163693429      -3.013092712594432E-3   -1.259282058650676E-2    3.633982506263258E-1    2.927904680437566E-1
 7.300000000000000E8     7.828934675183616E-1   -1.215564717733870E-1    7.631618707210370      -5.416079468166025      -4.010028894197310E-3   -1.240714241509889E-2    3.670776506753412E-1    2.916976423668589E-1
 7.310000000000000E8     7.801720056503617E-1   -1.300346433879541E-1    7.608777659021819      -5.474269371235192      -3.745473502808478E-3   -1.283645560732860E-2    3.684699214320119E-1    2.863680588291755E-1
 7.320000000000000E8     7.781429385629851E-1   -1.393852739772048E-1    7.573179396150501      -5.528036683365438      -3.698904641233550E-3   -1.241369451862337E-2    3.721049218718844E-1    2.867542512335649E-1
 7.330000000000000E8     7.781055836371044E-1   -1.477522827977361E-1    7.527833742446185      -5.580681763731398      -3.992493995967672E-3   -1.228893704674787E-2    3.729617490006698E-1    2.853723817274089E-1
 7.340000000000000E8     7.778417114515006E-1   -1.567324580136273E-1    7.549981815662008      -5.678296223235984      -3.766034910932282E-3   -1.237202721025955E-2    3.775210108027395E-1    2.859336691135133E-1
 7.350000000000000E8     7.754660798715781E-1   -1.650031021285596E-1    7.474831309332979      -5.708600114081780      -3.866116620474317E-3   -1.280119687073007E-2    3.769003935105095E-1    2.802409577291481E-1
 7.360000000000000E8     7.754564598733796E-1   -1.741854834620082E-1    7.456433557273075      -5.767895512446253      -4.250402885730921E-3   -1.250551904269821E-2    3.812226075948631E-1    2.781020542625061E-1
 7.370000000000000E8     7.739312565562086E-1   -1.853477224324125E-1    7.435604542062971      -5.871580266333075      -3.701894011970820E-3   -1.232867296490940E-2    3.824335237593773E-1    2.821108508881575E-1
 7.380000000000000E8     7.688684618070257E-1   -1.917176882274654E-1    7.415219318338192      -5.868846569415008      -4.504687296460798E-3   -1.213933723379465E-2    3.841740013349517E-1    2.784508715252086E-1
 7.390000000000000E8     7.665691085284284E-1   -2.015705311141464E-1    7.348626590564274      -5.941734545403786      -4.379192637387820E-3   -1.220374805146879E-2    3.841030551214839E-1    2.782591351558965E-1
 7.400000000000000E8     7.654820664088373E-1   -2.103144911859681E-1    7.340784228069803      -5.997971428313174      -4.388774652453389E-3   -1.250413086948446E-2    3.868549704797892E-1    2.770423388071297E-1
 7.410000000000000E8     7.653102083109947E-1   -2.168946225752079E-1    7.311148294796284      -6.040884558337652      -4.457875906271009E-3   -1.214620878165706E-2    3.897305173913135E-1    2.727670631026053E-1
 7.420000000000000E8     7.623510487674566E-1   -2.282372435546730E-1    7.269669724445538      -6.107356941063387      -4.463245541716518E-3   -1.222316941220796E-2    3.922465394059406E-1    2.706996716237821E-1
 7.430000000000000E8     7.597640967624750E-1   -2.391146939198603E-1    7.235525628268645      -6.150657490383460      -4.538301856923856E-3   -1.272328030240776E-2    3.924847266781715E-1    2.738624089446521E-1
 7.440000000000000E8     7.558835349816865E-1   -2.456872012409188E-1    7.171786666735850      -6.197382051541966      -4.790459887927800E-3   -1.254506145523020E-2    3.951703871988771E-1    2.711743959965421E-1
 7.450000000000000E8     7.526987855525681E-1   -2.565912772911068E-1    7.159670251007885      -6.256478721359286      -4.227416545580506E-3   -1.229741471043258E-2    3.978217203812371E-1    2.696437399080695E-1
 7.460000000000000E8     7.502217714213555E-1   -2.651222086644219E-1    7.100295122888686      -6.285616199557736      -4.776446696026715E-3   -1.221487674847749E-2    3.987237605089183E-1    2.680151039068372E-1
 7.470000000000000E8     7.478855581413292E-1   -2.728287898573212E-1    7.060445400362649      -6.336693272565668      -4.702230469651852E-3   -1.237344982051954E-2    3.997125758391898E-1    2.667577870434779E-1
 7.480000000000000E8     7.446456933328155E-1   -2.831001006612339E-1    7.035534999619541      -6.416080496130030      -4.551789145774422E-3   -1.242061950850386E-2    4.022572491618074E-1    2.660748728335743E-1
 7.490000000000000E8     7.407803284702059E-1   -2.921997615825367E-1    6.993610092152910      -6.439977739565301      -5.008982644204102E-3   -1.204101647398542E-2    4.021931382997556E-1    2.652375881437159E-1
 7.500000000000000E8     7.368022491723151E-1   -2.998311262511525E-1    6.902036670423756      -6.506483050371204      -4.991244678030754E-3   -1.226943011802515E-2    4.054382990134319E-1    2.630461867304321E-1
 7.510000000000000E8     7.351948359836309E-1   -3.094312886033440E-1    6.890261634796980      -6.578890473920739      -4.562589890175525E-3   -1.158111448824861E-2    4.054386987625169E-1    2.644262294778535E-1
 7.520000000000000E8     7.312143258420657E-1   -3.192517404477151E-1    6.832657017024478      -6.586555725152166      -5.144717535206655E-3   -1.235055827430267E-2    4.091350171464836E-1    2.621900720613973E-1
 7.530000000000000E8     7.259959446891087E-1   -3.267141411076340E-1    6.795953463619727      -6.663340781747846      -4.851978212177043E-3   -1.180993437381734E-2    4.114626373946564E-1    2.628280896860482E-1
 7.540000000000000E8     7.247842509566231E-1   -3.371355569329013E-1    6.763611556212439      -6.694640963088315      -5.047350304130760E-3   -1.219998897929369E-2    4.116914858337115E-1    2.596094105871637E-1
 7.550000000000000E8     7.200730106069917E-1   -3.459478290106204E-1    6.699784777783554      -6.775627804036543      -5.039729827690245E-3   -1.200827867755293E-2    4.115650895411917E-1    2.593668603267891E-1
 7.560000000000000E8     7.184481504220632E-1   -3.535683733738541E-1    6.676675591890580      -6.844292168732940      -5.002718439352081E-3   -1.266155619516258E-2    4.162810854855471E-1    2.590310795190452E-1
 7.570000000000000E8     7.136141156310613E-1   -3.631974205952385E-1    6.629097827357879      -6.897314339332177      -5.317694449769947E-3   -1.241098018970961E-2    4.148478211551872E-1    2.569875678860590E-1
 7.580000000000000E8     7.080704446727025E-1   -3.717247954354680E-1    6.581446827490165      -6.947435693449478      -5.568827805373507E-3   -1.249093550963085E-2    4.148970470814581E-1    2.568388250797212E-1
 7.590000000000000E8     7.046702336907859E-1   -3.802537950120998E-1    6.543090369515440      -7.010737346528052      -5.266920838646322E-3   -1.224617464876766E-2    4.171212389881443E-1    2.530831225279249E-1
 7.600000000000000E8     6.992373645508640E-1   -3.888909898106892E-1    6.518065833063747      -7.078065312772352      -5.646136262228629E-3   -1.229924919253705E-2    4.164719402993778E-1    2.533675054951340E-1
 7.610000000000000E8     6.933488638998738E-1   -3.964982253043031E-1    6.464960919328267      -7.148100837344368      -5.078622629544166E-3   -1.264098135024788E-2    4.202704966588926E-1    2.509642673854416E-1
 7.620000000000000E8     6.920182894819776E-1   -4.044267235544033E-1    6.425209150707412      -7.201006750475932      -5.617362848267801E-3   -1.276299267644527E-2    4.207608816611186E-1    2.521360615838093E-1
 7.630000000000000E8     6.843729555793304E-1   -4.116546933018698E-1    6.389763197834683      -7.222615069356680      -5.702931267399671E-3   -1.266953426596974E-2    4.222928757979070E-1    2.493707880424788E-1
 7.640000000000000E8     6.768316198652589E-1   -4.203944540092305E-1    6.339107145539363      -7.306337654428642      -5.790956504178234E-3   -1.273192458057275E-2    4.226219431134648E-1    2.472086676578386E-1
 7.650000000000000E8     6.729835045074007E-1   -4.276031012676230E-1    6.311889661470338      -7.372056015241791      -6.189488463457627E-3   -1.261836356981160E-2    4.212478740153855E-1    2.466602328372040E-1
 7.660000000000000E8     6.658353214954010E-1   -4.345130842404775E-1    6.268052142253946      -7.449166517061054      -6.482603154337583E-3   -1.312200238227906E-2    4.230903439303397E-1    2.422950553592789E-1
 7.670000000000000E8     6.621992529954931E-1   -4.431131100771944E-1    6.261806553276429      -7.491504902427652      -6.384806617424529E-3   -1.293012325665496E-2    4.222184521458290E-1    2.416336115106458E-1
 7.680000000000000E8     6.557364898383682E-1   -4.493309941560922E-1    6.183720757768087      -7.520715944036763      -6.326757237959464E-3   -1.283793581202944E-2    4.243001085710951E-1    2.397492586917408E-1
 7.690000000000000E8     6.510975813388798E-1   -4.574967232358772E-1    6.149919465996940      -7.617957568943487      -6.195745204035796E-3   -1.288301708745718E-2    4.247059128232715E-1    2.379955994934463E-1
 7.700000000000000E8     6.446195645246903E-1   -4.646471732593346E-1    6.102524110451454      -7.618536055845624      -6.211476079687740E-3   -1.249409751845644E-2    4.248333823168318E-1    2.357313196934452E-1
 7.710000000000000E8     6.355046538065420E-1   -4.689796403012864E-1    6.057215831384676      -7.679060435444299      -6.581215377417723E-3   -1.305739893153368E-2    4.253638185621472E-1    2.314340692115918E-1
 7.720000000000000E8     6.325488339398263E-1   -4.773458218660335E-1    6.021705080157581      -7.724301315196318      -6.778600429624794E-3   -1.291069291013845E-2    4.269536070952700E-1    2.325676826692327E-1
 7.730000000000000E8     6.257975617208419E-1   -4.847000980186314E-1    5.967807520754893      -7.780497273589294      -6.788674104527669E-3   -1.325085089220503E-2    4.254354652992421E-1    2.298928034632176E-1
 7.740000000000000E8     6.213288218948263E-1   -4.905084564187106E-1    5.906380028697575      -7.809894596702579      -6.862020252736660E-3   -1.253845803359799E-2    4.269253500926467E-1    2.268112323627239E-1
 7.750000000000000E8     6.133591625949343E-1   -4.984429222842365E-1    5.844414216481097      -7.850071018455530      -7.070050644620273E-3   -1.294823170996045E-2    4.264808798233568E-1    2.256631898782813E-1
 7.760000000000000E8     6.089083869610125E-1   -5.053214701163009E-1    5.800593290189449      -7.917167832911614      -7.370742362212584E-3   -1.319324952056841E-2    4.268643243193601E-1    2.251697346909348E-1
 7.770000000000000E8     6.047009938058330E-1   -5.107146431509890E-1    5.753087637856569      -7.926197134450779      -7.416595351731000E-3   -1.269381583619215E-2    4.282796350002828E-1    2.208955874167023E-1
 7.780000000000000E8     5.983467014220094E-1   -5.162067772976956E-1    5.694481428782736      -8.004371149466591      -7.598295993148135E-3   -1.278941679575188E-2    4.280880720733680E-1    2.179665174435316E-1
 7.790000000000000E8     5.909327717770535E-1   -5.260281055632077E-1    5.624458592752789      -8.052158417782955      -7.779105868282353E-3   -1.293451079437061E-2    4.270225291988899E-1    2.143977556486092E-1
 7.800000000000000E8     5.872409346542283E-1   -5.321612231352312E-1    5.602234041411677      -8.103248198309435      -7.849006529400931E-3   -1.292887640154743E-2    4.298016261183125E-1    2.121898112293479E-1
 7.810000000000000E8     5.826900922469853E-1   -5.384154233332235E-1    5.529048727474184      -8.143232027814884      -8.062125539310733E-3   -1.254265060289248E-2    4.284106348301683E-1    2.086066505693110E-1
 7.820000000000000E8     5.773735591938010E-1   -5.443545557295061E-1    5.475858175997837      -8.216639379474504      -8.773547186662151E-3   -1.283586594374360E-2    4.302799796694387E-1    2.070025699969914E-1
 7.830000000000000E8     5.691848247678339E-1   -5.525620836461107E-1    5.402978768764910      -8.242044972735471      -8.353810980544576E-3   -1.288548308871636E-2    4.300298094527200E-1    2.024958646535872E-1
 7.840000000000000E8     5.636069065092101E-1   -5.585008885896890E-1    5.354298490510276      -8.324055298867668      -8.269894146754905E-3   -1.292390571130915E-2    4.292332411989741E-1    1.995579052729554E-1
 7.850000000000000E8     5.570631755046251E-1   -5.652698854628760E-1    5.271578577922871      -8.402240623247843      -8.652848612135470E-3   -1.267981915783588E-2    4.325077967553260E-1    1.953631103931030E-1
 7.860000000000000E8     5.528377060864853E-1   -5.698875633862736E-1    5.250257172160783      -8.440531959502577      -8.594474795052589E-3   -1.260813172157704E-2    4.323155690176827E-1    1.916696935882153E-1
 7.870000000000000E8     5.451648048582329E-1   -5.763830251527660E-1    5.195034505114046      -8.501394899112684      -8.742988033004079E-3   -1.256163805337991E-2    4.335141626694667E-1    1.902608436350199E-1
 7.880000000000000E8     5.357863692223042E-1   -5.809009974526186E-1    5.115930514139270      -8.552066498839411      -8.929568297230768E-3   -1.263240842148632E-2    4.299913399892683E-1    1.848669896219942E-1
 7.890000000000000E8     5.295796927718532E-1   -5.867732107320721E-1    5.057975606798362      -8.621957847596306      -8.984744707745638E-3   -1.245882355717623E-2    4.334706990770396E-1    1.821676350796315E-1
 7.900000000000000E8     5.242196163628563E-1   -5.897687604208217E-1    5.025584511967846      -8.668786314283347      -8.946248604738263E-3   -1.251410976153759E-2    4.337621671832234E-1    1.766437406490640E-1
