#  HZ   S   RI   R     50.00 
! Rohde & Schwarz Vector Network Analyzer 
! Rohde-Schwarz,ZNB20-2Port,1311601062102243,3.20
! Created: UTC 10/31/2022, 5:04:12 PM
! freq[Hz]                re:S11                  im:S11                  re:S21                  im:S21                  re:S12                  im:S12                  re:S22                  im:S22
 7.000000000000000E8     8.043985194539067E-1    9.972361606506047E-2    7.844292215726743      -4.993392277396921      -2.030943773428332E-3   -1.081346395600132E-2    5.190951565145907E-1    3.587433988777613E-1
 7.010000000000000E8     8.087275792340791E-1    9.143411519068335E-2    7.811374035348755      -5.076758407622450      -1.692210767409588E-3   -1.094750588264926E-2    5.186262503189146E-1    3.583951458628818E-1
 7.020000000000000E8     8.087155558824838E-1    8.092340796206265E-2    7.804776945123926      -5.112615053611974      -1.493694286827209E-3   -1.090208491391935E-2    5.232028030900749E-1    3.548137694385103E-1
 7.030000000000000E8     8.076692215117948E-1    7.207564476199031E-2    7.762707499660424      -5.196552692817241      -1.722800527200780E-3   -1.123688097717363E-2    5.230817705101597E-1    3.549909381046026E-1
 7.040000000000000E8     8.108102882293633E-1    6.322281624677537E-2    7.752622695547648      -5.241544466551061      -1.813206564423510E-3   -1.104389643636019E-2    5.255976972134756E-1    3.535399726872672E-1
 7.050000000000000E8     8.102030580172770E-1    5.328151042642919E-2    7.719159588384075      -5.316805622730392      -1.623153701037428E-3   -1.136620545433406E-2    5.251565853786260E-1    3.493668556324316E-1
 7.060000000000000E8     8.134058113373845E-1    4.450913507054479E-2    7.711953805085702      -5.381253517989933      -2.253911020459570E-3   -1.124675829965446E-2    5.265019751244191E-1    3.450970562003268E-1
 7.070000000000000E8     8.148101304865112E-1    3.482454503984446E-2    7.660526174880439      -5.470634505096597      -1.948090266661912E-3   -1.131312247468712E-2    5.277174531882813E-1    3.448282988015618E-1
 7.080000000000000E8     8.158223152986047E-1    2.665147197750621E-2    7.629643481961637      -5.531304227623634      -2.190181756577264E-3   -1.124726604761410E-2    5.292903119722393E-1    3.422825763838183E-1
 7.090000000000000E8     8.160102542481555E-1    1.556938176215737E-2    7.607085605660574      -5.599045034588172      -2.470927428379155E-3   -1.120126602412860E-2    5.315236987616949E-1    3.392383470668404E-1
 7.100000000000000E8     8.162246705571162E-1    7.705194858241412E-3    7.581058801018737      -5.632921930212979      -2.503593579581404E-3   -1.130349556043196E-2    5.346112041267339E-1    3.379325114031798E-1
 7.110000000000000E8     8.167462652146161E-1   -3.973903183824093E-3    7.554917222795243      -5.687199664280111      -2.489174148884960E-3   -1.154526497876381E-2    5.370475404319248E-1    3.332259457540706E-1
 7.120000000000000E8     8.183693252139015E-1   -1.079738848440297E-2    7.543926236346822      -5.738814452972588      -2.425413694843272E-3   -1.142983553080979E-2    5.386508910630809E-1    3.321028932253777E-1
 7.130000000000000E8     8.165139079108382E-1   -2.266993570488733E-2    7.479188863098857      -5.815656772581267      -2.624639834755437E-3   -1.155896728193949E-2    5.409457693027473E-1    3.295628330626409E-1
 7.140000000000000E8     8.169170520800388E-1   -2.838268363694370E-2    7.463856700288858      -5.869122222487880      -2.533995013652316E-3   -1.123844407197292E-2    5.415900875845182E-1    3.286760474041444E-1
 7.150000000000000E8     8.168220292854150E-1   -4.112956882711988E-2    7.428089346358721      -5.894412658610157      -2.539929217671019E-3   -1.129728660253244E-2    5.441117440194626E-1    3.224204493657506E-1
 7.160000000000000E8     8.163566968027300E-1   -4.832828389861488E-2    7.384173957893659      -5.945702964702130      -2.978917522747523E-3   -1.147805562276874E-2    5.455476618348907E-1    3.190469630087299E-1
 7.170000000000000E8     8.167384200122033E-1   -5.956331487063925E-2    7.345166617101275      -6.010294984486880      -2.713604572052596E-3   -1.134691861870718E-2    5.479517523031852E-1    3.174629991275442E-1
 7.180000000000000E8     8.153187046939943E-1   -6.638373370517331E-2    7.293836592638578      -6.071076185387180      -2.598792470609184E-3   -1.113249923704370E-2    5.491442402212521E-1    3.151200464850167E-1
 7.190000000000000E8     8.121348723921211E-1   -7.961839057664138E-2    7.258909460169415      -6.102040721733585      -2.667098709259625E-3   -1.093243154083856E-2    5.516690372656361E-1    3.126454943368260E-1
 7.200000000000000E8     8.135522920682039E-1   -8.716277625929041E-2    7.205461274601639      -6.178321489971251      -3.024532407752777E-3   -1.157191271994218E-2    5.535764030223651E-1    3.073751132932246E-1
 7.210000000000000E8     8.100922970644485E-1   -9.464899259477107E-2    7.168937327843556      -6.225077056252905      -3.065066312916871E-3   -1.156813746091468E-2    5.527902765612869E-1    3.062247080256106E-1
 7.220000000000000E8     8.093005006578389E-1   -1.070825947093785E-1    7.097548802115978      -6.294612706138628      -3.583518591810453E-3   -1.146712386307035E-2    5.581038129782163E-1    3.040542260875431E-1
 7.230000000000000E8     8.077488375572945E-1   -1.167546647375002E-1    7.085957283612610      -6.337327917445880      -3.646232861066774E-3   -1.134287860591118E-2    5.590960490136422E-1    3.012236208796777E-1
 7.240000000000000E8     8.069685505093875E-1   -1.237046969248686E-1    7.029378514045905      -6.389252196885159      -3.501062294762308E-3   -1.113041282443127E-2    5.569356124854283E-1    3.000303554971250E-1
 7.250000000000000E8     8.040900811056891E-1   -1.331919026308048E-1    6.991066807237507      -6.440373049505966      -3.467559923537121E-3   -1.120133210410885E-2    5.602612550273803E-1    2.954319650917128E-1
 7.260000000000000E8     8.034444029273464E-1   -1.428367581864142E-1    6.964182290147865      -6.504707498162946      -3.611003814844620E-3   -1.161293283548271E-2    5.645745399595212E-1    2.915504950701570E-1
 7.270000000000000E8     8.016660683538942E-1   -1.531020168596114E-1    6.917279091653511      -6.578729471119661      -3.664598708192179E-3   -1.142763323269689E-2    5.636111689987741E-1    2.897234031858770E-1
 7.280000000000000E8     7.993877620699882E-1   -1.617912652038005E-1    6.855947948089038      -6.634866206310666      -3.780721146452232E-3   -1.152157260691505E-2    5.662176436007004E-1    2.842016063669123E-1
 7.290000000000000E8     8.006051985344669E-1   -1.709693282867121E-1    6.831549384942242      -6.712328518789163      -3.838842037278118E-3   -1.141187027815039E-2    5.673452655417950E-1    2.828644293771725E-1
 7.300000000000000E8     7.980813306085330E-1   -1.812448671339703E-1    6.757634761100593      -6.761758302862858      -3.754782349314541E-3   -1.133968651178142E-2    5.698945137812746E-1    2.812651113295594E-1
 7.310000000000000E8     7.965261631319521E-1   -1.911575544689422E-1    6.742229193092553      -6.823274386519586      -3.962554121076860E-3   -1.153326986593504E-2    5.701053716697976E-1    2.767184063850237E-1
 7.320000000000000E8     7.932922499413417E-1   -1.985906810269090E-1    6.696295967303887      -6.869902433376978      -4.010049088267248E-3   -1.169755754761540E-2    5.727832021649596E-1    2.735751173812503E-1
 7.330000000000000E8     7.931265509671322E-1   -2.082548790142409E-1    6.649295799228830      -6.918038084740723      -4.137845714172993E-3   -1.158111014778413E-2    5.745220701673653E-1    2.722895019825806E-1
 7.340000000000000E8     7.898076770049512E-1   -2.180863157119144E-1    6.652060162479042      -7.011341962058151      -4.462229952212977E-3   -1.138379393621466E-2    5.783622998047914E-1    2.675024441844929E-1
 7.350000000000000E8     7.890337239464954E-1   -2.274764552039111E-1    6.580146961239376      -7.045614602436675      -4.694135729049482E-3   -1.120892878831685E-2    5.762611168093213E-1    2.626366826061883E-1
 7.360000000000000E8     7.879920648603567E-1   -2.372377215446758E-1    6.546792158504500      -7.086454192234112      -4.433141857088842E-3   -1.138502684276854E-2    5.806876610630393E-1    2.587565111444710E-1
 7.370000000000000E8     7.862288629944933E-1   -2.468874447961213E-1    6.531507209107562      -7.187490333502116      -4.408689144975267E-3   -1.174483451982291E-2    5.828575062173961E-1    2.605737278705036E-1
 7.380000000000000E8     7.809995074307686E-1   -2.540931858848050E-1    6.505737087697744      -7.187096505995227      -4.534606860105759E-3   -1.122580428103090E-2    5.822980195986732E-1    2.548800890644942E-1
 7.390000000000000E8     7.764840376412001E-1   -2.652918556590058E-1    6.412281750651283      -7.259990353708817      -4.760964204321404E-3   -1.155731373472738E-2    5.851108436035615E-1    2.537883760184044E-1
 7.400000000000000E8     7.753500725925118E-1   -2.721719514934821E-1    6.385044085755028      -7.294477090562746      -5.006484206757608E-3   -1.138046989847753E-2    5.874419236171351E-1    2.504163611642649E-1
 7.410000000000000E8     7.728096132216291E-1   -2.800225959837870E-1    6.346557196907319      -7.336579334149874      -4.829979848925979E-3   -1.142583741722693E-2    5.899393310834347E-1    2.474881523988523E-1
 7.420000000000000E8     7.691007858814840E-1   -2.912529547379447E-1    6.285937886576694      -7.411224997238419      -5.331995346111607E-3   -1.151750881957196E-2    5.919372455742925E-1    2.448882177365821E-1
 7.430000000000000E8     7.644272232487408E-1   -3.005031858328810E-1    6.235149382971526      -7.434249256609182      -5.302330876276429E-3   -1.151849480216549E-2    5.915927670172820E-1    2.416623930864936E-1
 7.440000000000000E8     7.616470153771185E-1   -3.088653572061958E-1    6.178552627028439      -7.483102299400321      -5.217613229790738E-3   -1.141389098922498E-2    5.939939349541145E-1    2.385987128474944E-1
 7.450000000000000E8     7.558440996816430E-1   -3.178770631064702E-1    6.146073568804983      -7.534312641410557      -5.294356618019735E-3   -1.107665902629433E-2    5.969236143183785E-1    2.340460085967109E-1
 7.460000000000000E8     7.557435127983527E-1   -3.271331193431631E-1    6.090135634633334      -7.569430733296629      -5.459141931129494E-3   -1.124853106156448E-2    5.991433729766655E-1    2.325252474978906E-1
 7.470000000000000E8     7.482657399102930E-1   -3.355804887426384E-1    6.010495566750937      -7.600290509315101      -4.962197057275333E-3   -1.075859196369219E-2    5.994179730747341E-1    2.283263519164931E-1
 7.480000000000000E8     7.451401749505598E-1   -3.458017389791221E-1    5.979788294748812      -7.687575310445985      -5.599648387473199E-3   -1.123003073198978E-2    6.023915794169333E-1    2.242813276868441E-1
 7.490000000000000E8     7.418770776697173E-1   -3.555078541497667E-1    5.932057633546553      -7.724178575997182      -5.189382944880186E-3   -1.133776413425198E-2    6.037801777623293E-1    2.246734617081206E-1
 7.500000000000000E8     7.381257640381865E-1   -3.622213850516726E-1    5.823244934907387      -7.780457173566239      -5.570446863991764E-3   -1.124441243391791E-2    6.059966217800387E-1    2.198750859423131E-1
 7.510000000000000E8     7.347934078944073E-1   -3.701896846270347E-1    5.788060926193355      -7.841186672045669      -5.740109216089980E-3   -1.165486999669750E-2    6.066177790463865E-1    2.188132390656276E-1
 7.520000000000000E8     7.302324321659687E-1   -3.787858104669589E-1    5.747119907396287      -7.853747749656690      -5.977582290749676E-3   -1.109011675310636E-2    6.124167761284058E-1    2.129222936638998E-1
 7.530000000000000E8     7.256167775221579E-1   -3.871690756746823E-1    5.688055326092161      -7.922486697525978      -6.190776575622993E-3   -1.117287154633917E-2    6.127954131664997E-1    2.121160916732338E-1
 7.540000000000000E8     7.231544502412444E-1   -3.982431708962750E-1    5.642455143250684      -7.959754471768591      -5.902563101475950E-3   -1.102340597995350E-2    6.151144169917442E-1    2.091742493461736E-1
 7.550000000000000E8     7.190107830117956E-1   -4.043113929102445E-1    5.574599554060259      -8.026177598075426      -6.376929402037972E-3   -1.126800760809096E-2    6.122921384053598E-1    2.045907644367324E-1
 7.560000000000000E8     7.154092052283434E-1   -4.122993435866526E-1    5.529675635557531      -8.103282036144169      -5.775802613528901E-3   -1.114668713055068E-2    6.146108168514292E-1    2.006563282066114E-1
 7.570000000000000E8     7.107272007832809E-1   -4.231254301415042E-1    5.464979331194276      -8.139940040823289      -5.986370715307904E-3   -1.133892692180629E-2    6.169057410287528E-1    1.996243227919950E-1
 7.580000000000000E8     7.059901628445907E-1   -4.288869392038982E-1    5.422441281178202      -8.180469272645082      -5.893741710754441E-3   -1.091410555529768E-2    6.179944397909042E-1    1.986249064393495E-1
 7.590000000000000E8     7.014413191500057E-1   -4.365097238876459E-1    5.370511763141728      -8.237824990875753      -6.029857706403262E-3   -1.120353531799079E-2    6.203997625470510E-1    1.933766649285981E-1
 7.600000000000000E8     6.971666351713004E-1   -4.465139403811830E-1    5.328452205106697      -8.313261431257956      -6.252895453413113E-3   -1.120984431493588E-2    6.215634676580696E-1    1.915706853344026E-1
 7.610000000000000E8     6.921189502424574E-1   -4.525680888179726E-1    5.263476705123652      -8.354255992677109      -6.399762097654004E-3   -1.125730242815854E-2    6.231956421705570E-1    1.885615918857971E-1
 7.620000000000000E8     6.900407043636344E-1   -4.607070436619918E-1    5.223224528010655      -8.392521405141295      -6.942390018989097E-3   -1.111486678133648E-2    6.249211450530048E-1    1.842729236876968E-1
 7.630000000000000E8     6.828706990689003E-1   -4.688180255319724E-1    5.170553497490697      -8.409122077748670      -6.560472348628637E-3   -1.128857616957343E-2    6.265613996347791E-1    1.838765583798648E-1
 7.640000000000000E8     6.770294557174426E-1   -4.783754203341715E-1    5.105704984108335      -8.491293485370958      -6.606952416798173E-3   -1.125404774439871E-2    6.270393889587017E-1    1.772989766854932E-1
 7.650000000000000E8     6.716121658257845E-1   -4.844948038871511E-1    5.050325328554031      -8.539584547097137      -7.099056331956307E-3   -1.102868934288546E-2    6.279445516657878E-1    1.767806337312166E-1
 7.660000000000000E8     6.635134302112928E-1   -4.915187265610051E-1    4.993715587346159      -8.616061458398818      -6.608554339663002E-3   -1.133129890399374E-2    6.320454442311625E-1    1.727496371330924E-1
 7.670000000000000E8     6.600810587301571E-1   -5.002793813112014E-1    4.966990156757043      -8.644611850879656      -6.957529749474842E-3   -1.084866364839173E-2    6.305763162348420E-1    1.715213565889278E-1
 7.680000000000000E8     6.535550264356684E-1   -5.063760661692479E-1    4.888265221083812      -8.668599493210435      -7.079244061098750E-3   -1.087407238661231E-2    6.331587196559084E-1    1.681214458023878E-1
 7.690000000000000E8     6.484001557550817E-1   -5.141465593952882E-1    4.824799730645218      -8.732107708881664      -7.276527301174773E-3   -1.102485158483551E-2    6.318260006209926E-1    1.660632321457822E-1
 7.700000000000000E8     6.435213412113171E-1   -5.228483737922847E-1    4.781502143433002      -8.734338928556697      -7.282574848803690E-3   -1.094321112821695E-2    6.327544811178321E-1    1.620192307784275E-1
 7.710000000000000E8     6.327878696775505E-1   -5.273664202496359E-1    4.716894137367554      -8.783293187923558      -7.234918497724580E-3   -1.110127518432369E-2    6.349290448674807E-1    1.592371385646159E-1
 7.720000000000000E8     6.308174365503063E-1   -5.338559476728995E-1    4.669110685747181      -8.809848633243911      -7.119667915332032E-3   -1.108842845388627E-2    6.362495506499142E-1    1.561556583308451E-1
 7.730000000000000E8     6.258441209697083E-1   -5.427305097360179E-1    4.600259438431856      -8.873382348184574      -7.763921526599426E-3   -1.102593316247755E-2    6.377832192319667E-1    1.535951754186407E-1
 7.740000000000000E8     6.188851349872556E-1   -5.502362309888663E-1    4.534534530879367      -8.895590855296996      -7.508692882989214E-3   -1.099810893809689E-2    6.416302525128328E-1    1.517347506868544E-1
 7.750000000000000E8     6.106705406627899E-1   -5.571518300836714E-1    4.457797897779336      -8.921548044257634      -7.648407509557301E-3   -1.101195752764792E-2    6.416007294084772E-1    1.460392287025096E-1
 7.760000000000000E8     6.086036486942498E-1   -5.637393878495490E-1    4.403743530787553      -8.970764825304713      -7.614430817462365E-3   -1.097636046292677E-2    6.395267903755038E-1    1.459819729548609E-1
 7.770000000000000E8     6.031102594927382E-1   -5.712170639566410E-1    4.349274451897051      -8.981526143994428      -8.047112293080793E-3   -1.128617375007498E-2    6.410889467211245E-1    1.399623504751816E-1
 7.780000000000000E8     5.961376310369922E-1   -5.762966113040680E-1    4.278063742965451      -9.038174278789306      -7.874240637495927E-3   -1.093096915434807E-2    6.422244974728099E-1    1.399526489903745E-1
 7.790000000000000E8     5.874317457695721E-1   -5.867219194478402E-1    4.193148559744160      -9.090239005178107      -7.997216007423084E-3   -1.102525322236022E-2    6.419717183643892E-1    1.353249354045584E-1
 7.800000000000000E8     5.843608731410025E-1   -5.939474698297457E-1    4.179974154607526      -9.145316889167752      -8.378350824217944E-3   -1.100126294721243E-2    6.445558936381918E-1    1.327905540242967E-1
 7.810000000000000E8     5.774267958320471E-1   -6.023198082838450E-1    4.091566578311667      -9.166769780151482      -8.328070990985656E-3   -1.095932921080989E-2    6.438648431230177E-1    1.289148125720953E-1
 7.820000000000000E8     5.706861650978976E-1   -6.077113634889405E-1    4.024071190034106      -9.228644153586853      -8.333090729543576E-3   -1.118906287341658E-2    6.449024465469865E-1    1.249035221603638E-1
 7.830000000000000E8     5.628279454949099E-1   -6.153521411454183E-1    3.959248645722367      -9.232507811335282      -8.341350863135026E-3   -1.070964957211517E-2    6.458244924195785E-1    1.231849401561882E-1
 7.840000000000000E8     5.564563593002231E-1   -6.205968642886481E-1    3.895580285555166      -9.307014598892842      -8.696925401357566E-3   -1.090421320700832E-2    6.459764588893052E-1    1.182080807351892E-1
 7.850000000000000E8     5.491964397492384E-1   -6.269122737814498E-1    3.804636842652714      -9.347974656093017      -8.864428395757899E-3   -1.061122372099941E-2    6.473400230403883E-1    1.147056593706178E-1
 7.860000000000000E8     5.421715748620586E-1   -6.326858059885401E-1    3.776492183888341      -9.378211891697363      -8.438074599776959E-3   -1.045503518335327E-2    6.482801082554797E-1    1.117068258750686E-1
 7.870000000000000E8     5.347368802955556E-1   -6.408794454626817E-1    3.718667443677337      -9.445276171781813      -8.949896109257472E-3   -1.020979622524362E-2    6.484314534192208E-1    1.094085096097776E-1
 7.880000000000000E8     5.264850243751865E-1   -6.460521888595362E-1    3.647122724946305      -9.479853451155323      -8.711775814108876E-3   -1.053911108125190E-2    6.463689247892035E-1    1.064308331468852E-1
 7.890000000000000E8     5.179050376971851E-1   -6.482527393031700E-1    3.564487935212433      -9.507842346862532      -8.974068440913842E-3   -1.058041806789082E-2    6.491123000651808E-1    1.027426959222380E-1
 7.900000000000000E8     5.133467590866060E-1   -6.544124510444828E-1    3.529565432928312      -9.563391333135414      -8.959757327927639E-3   -1.089522242291480E-2    6.519843343420048E-1    9.773674581434252E-2
